   0.000000 1  20518c6x        Rx   d 8 2F 00 00 00 D8 37 3F 3E  Length = 0 BitCount = 0 ID = 33888454x
   0.000845 1  2050084x        Rx   d 8 00 00 00 00 00 00 00 00  Length = 0 BitCount = 0 ID = 33882244x
   0.001095 1  2050085x        Rx   d 8 00 00 00 00 00 00 00 00  Length = 0 BitCount = 0 ID = 33882245x
   0.001239 1  20518c3x        Rx   d 8 31 00 00 00 5B DD 45 3E  Length = 0 BitCount = 0 ID = 33888451x
   0.001385 1  2050086x        Rx   d 8 00 00 00 00 00 00 00 00  Length = 0 BitCount = 0 ID = 33882246x
   0.001520 1  20518cbx        Rx   d 8 2D 00 00 00 E0 11 35 3E  Length = 0 BitCount = 0 ID = 33888459x
   0.001671 1  2050087x        Rx   d 8 00 00 00 00 00 00 00 00  Length = 0 BitCount = 0 ID = 33882247x
   0.001905 1  2050088x        Rx   d 8 00 00 00 00 00 00 00 00  Length = 0 BitCount = 0 ID = 33882248x
   0.002094 1  20518c8x        Rx   d 8 34 00 00 00 74 33 52 3E  Length = 0 BitCount = 0 ID = 33888456x
   0.004160 1  2051803x        Rx   d 8 00 00 00 00 00 00 14 00  Length = 0 BitCount = 0 ID = 33888259x
   0.005097 1  2051808x        Rx   d 8 00 00 00 00 00 00 34 00  Length = 0 BitCount = 0 ID = 33888264x
   0.007193 1  205184bx        Rx   d 8 00 00 00 00 19 31 06 00  Length = 0 BitCount = 0 ID = 33888331x
   0.009332 1  2051801x        Rx   d 8 00 00 00 00 00 00 14 00  Length = 0 BitCount = 0 ID = 33888257x
   0.011073 1  2051804x        Rx   d 8 00 00 00 00 00 00 16 00  Length = 0 BitCount = 0 ID = 33888260x
   0.011243 1  2051809x        Rx   d 8 00 00 00 00 00 00 34 00  Length = 0 BitCount = 0 ID = 33888265x
   0.011613 1  2050081x        Rx   d 8 00 00 00 00 00 00 00 00  Length = 0 BitCount = 0 ID = 33882241x
   0.011852 1  2050082x        Rx   d 8 00 00 00 00 00 00 00 00  Length = 0 BitCount = 0 ID = 33882242x
   0.012070 1  2050083x        Rx   d 8 00 00 00 00 00 00 00 00  Length = 0 BitCount = 0 ID = 33882243x
   0.012346 1  2050089x        Rx   d 8 00 00 00 00 00 00 00 00  Length = 0 BitCount = 0 ID = 33882249x
   0.012592 1  205008bx        Rx   d 8 00 00 00 00 00 00 00 00  Length = 0 BitCount = 0 ID = 33882251x
   0.013770 1  2051805x        Rx   d 8 00 00 00 00 00 00 14 00  Length = 0 BitCount = 0 ID = 33888261x
   0.014103 1  2051844x        Rx   d 8 00 00 00 80 18 22 06 00  Length = 0 BitCount = 0 ID = 33888324x
   0.014245 1  2051849x        Rx   d 8 00 00 00 00 18 09 06 00  Length = 0 BitCount = 0 ID = 33888329x
   0.014399 1  2052c80x        Rx   d 8 00 00 00 00 00 00 00 00  Length = 0 BitCount = 0 ID = 33893504x
   0.014673 1  2052c40x        Rx   d 8 02 00 05 01 00 00 00 00  Length = 0 BitCount = 0 ID = 33893440x
   0.016081 1  2051884x        Rx   d 8 00 00 00 00 00 00 00 00  Length = 0 BitCount = 0 ID = 33888388x
   0.016235 1  2051889x        Rx   d 8 31 0C C3 BC 00 00 00 00  Length = 0 BitCount = 0 ID = 33888393x
   0.016760 1  2051845x        Rx   d 8 00 00 00 00 19 4D 06 00  Length = 0 BitCount = 0 ID = 33888325x
   0.017144 1  2051843x        Rx   d 8 00 00 00 00 19 2E 06 00  Length = 0 BitCount = 0 ID = 33888323x
   0.017996 1  2051806x        Rx   d 8 00 00 00 00 00 00 14 00  Length = 0 BitCount = 0 ID = 33888262x
   0.018131 1  2051848x        Rx   d 8 00 00 00 00 19 1E 06 00  Length = 0 BitCount = 0 ID = 33888328x
   0.018795 1  2051885x        Rx   d 8 00 00 00 00 00 00 00 00  Length = 0 BitCount = 0 ID = 33888389x
   0.019195 1  205180bx        Rx   d 8 00 00 00 00 00 00 34 00  Length = 0 BitCount = 0 ID = 33888267x
   0.020081 1  2051888x        Rx   d 8 00 00 00 00 00 00 00 00  Length = 0 BitCount = 0 ID = 33888392x
   0.020592 1  2051802x        Rx   d 8 00 00 00 00 00 00 14 00  Length = 0 BitCount = 0 ID = 33888258x
   0.022328 1  2051841x        Rx   d 8 00 00 00 00 19 3D 06 00  Length = 0 BitCount = 0 ID = 33888321x
   0.022468 1  2050084x        Rx   d 8 00 00 00 00 00 00 00 00  Length = 0 BitCount = 0 ID = 33882244x
   0.022723 1  2050085x        Rx   d 8 00 00 00 00 00 00 00 00  Length = 0 BitCount = 0 ID = 33882245x
   0.022974 1  2050086x        Rx   d 8 00 00 00 00 00 00 00 00  Length = 0 BitCount = 0 ID = 33882246x
   0.023119 1  2051807x        Rx   d 8 00 00 00 00 00 00 16 00  Length = 0 BitCount = 0 ID = 33888263x
   0.023273 1  2050087x        Rx   d 8 00 00 00 00 00 00 00 00  Length = 0 BitCount = 0 ID = 33882247x
   0.023505 1  2050088x        Rx   d 8 00 00 00 00 00 00 00 00  Length = 0 BitCount = 0 ID = 33882248x
   0.023647 1  2051842x        Rx   d 8 00 00 00 00 18 21 06 00  Length = 0 BitCount = 0 ID = 33888322x
   0.024350 1  2051881x        Rx   d 8 31 0C 43 BD 00 00 00 00  Length = 0 BitCount = 0 ID = 33888385x
   0.025602 1  2051882x        Rx   d 8 31 0C C3 3D 00 00 00 00  Length = 0 BitCount = 0 ID = 33888386x
   0.028220 1  20518c9x        Rx   d 8 37 00 00 00 08 6F 5D 3E  Length = 0 BitCount = 0 ID = 33888457x
   0.029152 1  2051803x        Rx   d 8 00 00 00 00 00 00 14 00  Length = 0 BitCount = 0 ID = 33888259x
   0.030088 1  2051808x        Rx   d 8 00 00 00 00 00 00 34 00  Length = 0 BitCount = 0 ID = 33888264x
   0.033136 1  2050081x        Rx   d 8 00 00 00 00 00 00 00 00  Length = 0 BitCount = 0 ID = 33882241x
   0.033357 1  2050082x        Rx   d 8 00 00 00 00 00 00 00 00  Length = 0 BitCount = 0 ID = 33882242x
   0.033616 1  2050083x        Rx   d 8 00 00 00 00 00 00 00 00  Length = 0 BitCount = 0 ID = 33882243x
   0.033822 1  2050089x        Rx   d 8 00 00 00 00 00 00 00 00  Length = 0 BitCount = 0 ID = 33882249x
   0.034035 1  205008bx        Rx   d 8 00 00 00 00 00 00 00 00  Length = 0 BitCount = 0 ID = 33882251x
   0.034332 1  2051801x        Rx   d 8 00 00 00 00 00 00 14 00  Length = 0 BitCount = 0 ID = 33888257x
   0.035065 1  20518c7x        Rx   d 8 31 00 00 00 C4 B0 44 3E  Length = 0 BitCount = 0 ID = 33888455x
   0.036069 1  2051804x        Rx   d 8 00 00 00 00 00 00 16 00  Length = 0 BitCount = 0 ID = 33888260x
   0.036243 1  2051809x        Rx   d 8 00 00 00 00 00 00 34 00  Length = 0 BitCount = 0 ID = 33888265x
   0.038761 1  2051805x        Rx   d 8 00 00 00 00 00 00 14 00  Length = 0 BitCount = 0 ID = 33888261x
   0.039163 1  2052c80x        Rx   d 8 00 00 00 00 00 00 00 00  Length = 0 BitCount = 0 ID = 33893504x
   0.039303 1  205188bx        Rx   d 8 31 0C C3 3C 00 00 00 00  Length = 0 BitCount = 0 ID = 33888395x
   0.040756 1  20518c5x        Rx   d 8 30 00 00 00 0A A0 40 3E  Length = 0 BitCount = 0 ID = 33888453x
   0.041059 1  2051847x        Rx   d 8 00 00 00 80 17 2A 06 00  Length = 0 BitCount = 0 ID = 33888327x
   0.042983 1  2051806x        Rx   d 8 00 00 00 00 00 00 14 00  Length = 0 BitCount = 0 ID = 33888262x
   0.043127 1  2051887x        Rx   d 8 00 00 00 00 00 00 00 00  Length = 0 BitCount = 0 ID = 33888391x
   0.043929 1  2050084x        Rx   d 8 00 00 00 00 00 00 00 00  Length = 0 BitCount = 0 ID = 33882244x
   0.044144 1  2050085x        Rx   d 8 00 00 00 00 00 00 00 00  Length = 0 BitCount = 0 ID = 33882245x
   0.044288 1  205180bx        Rx   d 8 00 00 00 00 00 00 34 00  Length = 0 BitCount = 0 ID = 33888267x
   0.044434 1  2050086x        Rx   d 8 00 00 00 00 00 00 00 00  Length = 0 BitCount = 0 ID = 33882246x
   0.044671 1  2050087x        Rx   d 8 00 00 00 00 00 00 00 00  Length = 0 BitCount = 0 ID = 33882247x
   0.044943 1  2050088x        Rx   d 8 00 00 00 00 00 00 00 00  Length = 0 BitCount = 0 ID = 33882248x
   0.045578 1  2051802x        Rx   d 8 00 00 00 00 00 00 14 00  Length = 0 BitCount = 0 ID = 33888258x
   0.045984 1  2051846x        Rx   d 8 00 00 00 00 17 1C 06 00  Length = 0 BitCount = 0 ID = 33888326x
   0.046312 1  20518c1x        Rx   d 8 31 00 00 00 CA 01 47 3E  Length = 0 BitCount = 0 ID = 33888449x
   0.047578 1  20518c2x        Rx   d 8 35 00 00 00 98 DC 57 3E  Length = 0 BitCount = 0 ID = 33888450x
   0.047983 1  2051886x        Rx   d 8 00 00 00 00 00 00 00 00  Length = 0 BitCount = 0 ID = 33888390x
   0.048127 1  2051807x        Rx   d 8 00 00 00 00 00 00 16 00  Length = 0 BitCount = 0 ID = 33888263x
   0.048270 1  20518c4x        Rx   d 8 2E 00 00 00 30 09 3B 3E  Length = 0 BitCount = 0 ID = 33888452x
   0.049130 1  2051883x        Rx   d 8 24 49 92 BD 00 00 00 00  Length = 0 BitCount = 0 ID = 33888387x
   0.049975 1  20518c6x        Rx   d 8 2F 00 00 00 AC 61 3F 3E  Length = 0 BitCount = 0 ID = 33888454x
   0.051135 1  20518c3x        Rx   d 8 31 00 00 00 44 61 45 3E  Length = 0 BitCount = 0 ID = 33888451x
   0.051271 1  20518cbx        Rx   d 8 2D 00 00 00 38 0C 35 3E  Length = 0 BitCount = 0 ID = 33888459x
   0.052092 1  20518c8x        Rx   d 8 34 00 00 00 D2 75 52 3E  Length = 0 BitCount = 0 ID = 33888456x
   0.054170 1  2051803x        Rx   d 8 00 00 00 00 00 00 14 00  Length = 0 BitCount = 0 ID = 33888259x
   0.054750 1  2050081x        Rx   d 8 00 00 00 00 00 00 00 00  Length = 0 BitCount = 0 ID = 33882241x
   0.055005 1  2050082x        Rx   d 8 00 00 00 00 00 00 00 00  Length = 0 BitCount = 0 ID = 33882242x
   0.055147 1  2051808x        Rx   d 8 00 00 00 00 00 00 34 00  Length = 0 BitCount = 0 ID = 33888264x
   0.055299 1  2050083x        Rx   d 8 00 00 00 00 00 00 00 00  Length = 0 BitCount = 0 ID = 33882243x
   0.055511 1  2050089x        Rx   d 8 00 00 00 00 00 00 00 00  Length = 0 BitCount = 0 ID = 33882249x
   0.055792 1  205008bx        Rx   d 8 00 00 00 00 00 00 00 00  Length = 0 BitCount = 0 ID = 33882251x
   0.057164 1  205184bx        Rx   d 8 00 00 00 00 19 32 06 00  Length = 0 BitCount = 0 ID = 33888331x
   0.059310 1  2051801x        Rx   d 8 00 00 00 00 00 00 14 00  Length = 0 BitCount = 0 ID = 33888257x
   0.061060 1  2051804x        Rx   d 8 00 00 00 00 00 00 16 00  Length = 0 BitCount = 0 ID = 33888260x
   0.061215 1  2051809x        Rx   d 8 00 00 00 00 00 00 34 00  Length = 0 BitCount = 0 ID = 33888265x
   0.063749 1  2051805x        Rx   d 8 00 00 00 00 00 00 14 00  Length = 0 BitCount = 0 ID = 33888261x
   0.064058 1  2051844x        Rx   d 8 00 00 00 80 18 21 06 00  Length = 0 BitCount = 0 ID = 33888324x
   0.064210 1  2051849x        Rx   d 8 00 00 00 00 18 09 06 00  Length = 0 BitCount = 0 ID = 33888329x
   0.064874 1  2052c80x        Rx   d 8 00 00 00 00 00 00 00 00  Length = 0 BitCount = 0 ID = 33893504x
   0.066057 1  2051884x        Rx   d 8 00 00 00 00 00 00 00 00  Length = 0 BitCount = 0 ID = 33888388x
   0.066202 1  2050084x        Rx   d 8 00 00 00 00 00 00 00 00  Length = 0 BitCount = 0 ID = 33882244x
   0.066347 1  2051889x        Rx   d 8 31 0C C3 BC 00 00 00 00  Length = 0 BitCount = 0 ID = 33888393x
   0.066489 1  2050085x        Rx   d 8 00 00 00 00 00 00 00 00  Length = 0 BitCount = 0 ID = 33882245x
   0.066721 1  2050086x        Rx   d 8 00 00 00 00 00 00 00 00  Length = 0 BitCount = 0 ID = 33882246x
   0.066866 1  2051845x        Rx   d 8 00 00 00 00 19 4E 06 00  Length = 0 BitCount = 0 ID = 33888325x
   0.067010 1  2050087x        Rx   d 8 00 00 00 00 00 00 00 00  Length = 0 BitCount = 0 ID = 33882247x
   0.067154 1  2051843x        Rx   d 8 00 00 00 00 19 2D 06 00  Length = 0 BitCount = 0 ID = 33888323x
   0.067300 1  2050088x        Rx   d 8 00 00 00 00 00 00 00 00  Length = 0 BitCount = 0 ID = 33882248x
   0.067976 1  2051806x        Rx   d 8 00 00 00 00 00 00 14 00  Length = 0 BitCount = 0 ID = 33888262x
   0.068112 1  2051848x        Rx   d 8 00 00 00 00 19 1D 06 00  Length = 0 BitCount = 0 ID = 33888328x
   0.068741 1  2051885x        Rx   d 8 00 00 00 00 00 00 00 00  Length = 0 BitCount = 0 ID = 33888389x
   0.069170 1  205180bx        Rx   d 8 00 00 00 00 00 00 34 00  Length = 0 BitCount = 0 ID = 33888267x
   0.070090 1  2051888x        Rx   d 8 00 00 00 00 00 00 00 00  Length = 0 BitCount = 0 ID = 33888392x
   0.070569 1  2051802x        Rx   d 8 00 00 00 00 00 00 14 00  Length = 0 BitCount = 0 ID = 33888258x
   0.072313 1  2051841x        Rx   d 8 00 00 00 00 19 3D 06 00  Length = 0 BitCount = 0 ID = 33888321x
   0.073077 1  2051807x        Rx   d 8 00 00 00 00 00 00 16 00  Length = 0 BitCount = 0 ID = 33888263x
   0.073561 1  2051842x        Rx   d 8 00 00 00 00 18 21 06 00  Length = 0 BitCount = 0 ID = 33888322x
   0.074298 1  2051881x        Rx   d 8 31 0C 43 BD 00 00 00 00  Length = 0 BitCount = 0 ID = 33888385x
   0.075559 1  2051882x        Rx   d 8 31 0C C3 3D 00 00 00 00  Length = 0 BitCount = 0 ID = 33888386x
   0.076874 1  2050081x        Rx   d 8 00 00 00 00 00 00 00 00  Length = 0 BitCount = 0 ID = 33882241x
   0.077121 1  2050082x        Rx   d 8 00 00 00 00 00 00 00 00  Length = 0 BitCount = 0 ID = 33882242x
   0.077349 1  2050083x        Rx   d 8 00 00 00 00 00 00 00 00  Length = 0 BitCount = 0 ID = 33882243x
   0.077565 1  2050089x        Rx   d 8 00 00 00 00 00 00 00 00  Length = 0 BitCount = 0 ID = 33882249x
   0.077799 1  205008bx        Rx   d 8 00 00 00 00 00 00 00 00  Length = 0 BitCount = 0 ID = 33882251x
   0.078206 1  20518c9x        Rx   d 8 37 00 00 00 B4 A7 5D 3E  Length = 0 BitCount = 0 ID = 33888457x
   0.079129 1  2051803x        Rx   d 8 00 00 00 00 00 00 14 00  Length = 0 BitCount = 0 ID = 33888259x
   0.080055 1  2051808x        Rx   d 8 00 00 00 00 00 00 34 00  Length = 0 BitCount = 0 ID = 33888264x
   0.084327 1  2051801x        Rx   d 8 00 00 00 00 00 00 14 00  Length = 0 BitCount = 0 ID = 33888257x
   0.085067 1  20518c7x        Rx   d 8 31 00 00 00 C2 AF 44 3E  Length = 0 BitCount = 0 ID = 33888455x
   0.086079 1  2051804x        Rx   d 8 00 00 00 00 00 00 16 00  Length = 0 BitCount = 0 ID = 33888260x
   0.086218 1  2051809x        Rx   d 8 00 00 00 00 00 00 34 00  Length = 0 BitCount = 0 ID = 33888265x
   0.088728 1  2051805x        Rx   d 8 00 00 00 00 00 00 14 00  Length = 0 BitCount = 0 ID = 33888261x
   0.089164 1  205188bx        Rx   d 8 31 0C C3 3C 00 00 00 00  Length = 0 BitCount = 0 ID = 33888395x
   0.090268 1  2050084x        Rx   d 8 00 00 00 00 00 00 00 00  Length = 0 BitCount = 0 ID = 33882244x
   0.090498 1  2050085x        Rx   d 8 00 00 00 00 00 00 00 00  Length = 0 BitCount = 0 ID = 33882245x
   0.090733 1  2050086x        Rx   d 8 00 00 00 00 00 00 00 00  Length = 0 BitCount = 0 ID = 33882246x
   0.090876 1  20518c5x        Rx   d 8 30 00 00 00 7A C6 40 3E  Length = 0 BitCount = 0 ID = 33888453x
   0.091022 1  2050087x        Rx   d 8 00 00 00 00 00 00 00 00  Length = 0 BitCount = 0 ID = 33882247x
   0.091167 1  2051847x        Rx   d 8 00 00 00 80 17 2A 06 00  Length = 0 BitCount = 0 ID = 33888327x
   0.091314 1  2050088x        Rx   d 8 00 00 00 00 00 00 00 00  Length = 0 BitCount = 0 ID = 33882248x
   0.091590 1  2052c80x        Rx   d 8 00 00 00 00 00 00 00 00  Length = 0 BitCount = 0 ID = 33893504x
   0.092960 1  2051806x        Rx   d 8 00 00 00 00 00 00 14 00  Length = 0 BitCount = 0 ID = 33888262x
   0.093104 1  2051887x        Rx   d 8 00 00 00 00 00 00 00 00  Length = 0 BitCount = 0 ID = 33888391x
   0.094153 1  205180bx        Rx   d 8 00 00 00 00 00 00 34 00  Length = 0 BitCount = 0 ID = 33888267x
   0.095552 1  2051802x        Rx   d 8 00 00 00 00 00 00 14 00  Length = 0 BitCount = 0 ID = 33888258x
   0.095949 1  2051846x        Rx   d 8 00 00 00 00 17 1B 06 00  Length = 0 BitCount = 0 ID = 33888326x
   0.096323 1  20518c1x        Rx   d 8 31 00 00 00 02 2C 47 3E  Length = 0 BitCount = 0 ID = 33888449x
   0.097561 1  20518c2x        Rx   d 8 35 00 00 00 98 DC 57 3E  Length = 0 BitCount = 0 ID = 33888450x
   0.097952 1  2051886x        Rx   d 8 00 00 00 00 00 00 00 00  Length = 0 BitCount = 0 ID = 33888390x
   0.098103 1  2051807x        Rx   d 8 00 00 00 00 00 00 16 00  Length = 0 BitCount = 0 ID = 33888263x
   0.098239 1  20518c4x        Rx   d 8 2E 00 00 00 EC D7 3A 3E  Length = 0 BitCount = 0 ID = 33888452x
   0.098541 1  2050081x        Rx   d 8 00 00 00 00 00 00 00 00  Length = 0 BitCount = 0 ID = 33882241x
   0.098796 1  2050082x        Rx   d 8 00 00 00 00 00 00 00 00  Length = 0 BitCount = 0 ID = 33882242x
   0.099011 1  2050083x        Rx   d 8 00 00 00 00 00 00 00 00  Length = 0 BitCount = 0 ID = 33882243x
   0.099153 1  2051883x        Rx   d 8 24 49 92 BD 00 00 00 00  Length = 0 BitCount = 0 ID = 33888387x
   0.099305 1  2050089x        Rx   d 8 00 00 00 00 00 00 00 00  Length = 0 BitCount = 0 ID = 33882249x
   0.099585 1  205008bx        Rx   d 8 00 00 00 00 00 00 00 00  Length = 0 BitCount = 0 ID = 33882251x
   0.099958 1  20518c6x        Rx   d 8 2F 00 00 00 E0 3D 3F 3E  Length = 0 BitCount = 0 ID = 33888454x
   0.101111 1  20518c3x        Rx   d 8 31 00 00 00 C1 4C 45 3E  Length = 0 BitCount = 0 ID = 33888451x
   0.101246 1  20518cbx        Rx   d 8 2D 00 00 00 52 86 35 3E  Length = 0 BitCount = 0 ID = 33888459x
   0.102042 1  20518c8x        Rx   d 8 34 00 00 00 D4 56 52 3E  Length = 0 BitCount = 0 ID = 33888456x
   0.104119 1  2051803x        Rx   d 8 00 00 00 00 00 00 14 00  Length = 0 BitCount = 0 ID = 33888259x
   0.105040 1  2051808x        Rx   d 8 00 00 00 00 00 00 34 00  Length = 0 BitCount = 0 ID = 33888264x
   0.107143 1  205184bx        Rx   d 8 00 00 00 00 19 31 06 00  Length = 0 BitCount = 0 ID = 33888331x
   0.109290 1  2051801x        Rx   d 8 00 00 00 00 00 00 14 00  Length = 0 BitCount = 0 ID = 33888257x
   0.110348 1  2050084x        Rx   d 8 00 00 00 00 00 00 00 00  Length = 0 BitCount = 0 ID = 33882244x
   0.110580 1  2050085x        Rx   d 8 00 00 00 00 00 00 00 00  Length = 0 BitCount = 0 ID = 33882245x
   0.110827 1  2050086x        Rx   d 8 00 00 00 00 00 00 00 00  Length = 0 BitCount = 0 ID = 33882246x
   0.111026 1  2051804x        Rx   d 8 00 00 00 00 00 00 16 00  Length = 0 BitCount = 0 ID = 33888260x
   0.111179 1  2050087x        Rx   d 8 00 00 00 00 00 00 00 00  Length = 0 BitCount = 0 ID = 33882247x
   0.111323 1  2051809x        Rx   d 8 00 00 00 00 00 00 34 00  Length = 0 BitCount = 0 ID = 33888265x
   0.111470 1  2050088x        Rx   d 8 00 00 00 00 00 00 00 00  Length = 0 BitCount = 0 ID = 33882248x
   0.113719 1  2051805x        Rx   d 8 00 00 00 00 00 00 14 00  Length = 0 BitCount = 0 ID = 33888261x
   0.114027 1  2051844x        Rx   d 8 00 00 00 80 18 21 06 00  Length = 0 BitCount = 0 ID = 33888324x
   0.114230 1  2051849x        Rx   d 8 00 00 00 00 18 09 06 00  Length = 0 BitCount = 0 ID = 33888329x
   0.114541 1  2052c80x        Rx   d 8 00 00 00 00 00 00 00 00  Length = 0 BitCount = 0 ID = 33893504x
   0.114782 1  2052c40x        Rx   d 8 02 00 05 01 00 00 00 00  Length = 0 BitCount = 0 ID = 33893440x
   0.116036 1  2051884x        Rx   d 8 00 00 00 00 00 00 00 00  Length = 0 BitCount = 0 ID = 33888388x
   0.116191 1  2051889x        Rx   d 8 31 0C C3 BC 00 00 00 00  Length = 0 BitCount = 0 ID = 33888393x
   0.116717 1  2051845x        Rx   d 8 00 00 00 00 19 4E 06 00  Length = 0 BitCount = 0 ID = 33888325x
   0.117103 1  2051843x        Rx   d 8 00 00 00 00 19 2E 06 00  Length = 0 BitCount = 0 ID = 33888323x
   0.117952 1  2051806x        Rx   d 8 00 00 00 00 00 00 14 00  Length = 0 BitCount = 0 ID = 33888262x
   0.118097 1  2051848x        Rx   d 8 00 00 00 00 19 1D 06 00  Length = 0 BitCount = 0 ID = 33888328x
   0.118720 1  2051885x        Rx   d 8 00 00 00 00 00 00 00 00  Length = 0 BitCount = 0 ID = 33888389x
   0.119160 1  205180bx        Rx   d 8 00 00 00 00 00 00 34 00  Length = 0 BitCount = 0 ID = 33888267x
   0.120035 1  2051888x        Rx   d 8 00 00 00 00 00 00 00 00  Length = 0 BitCount = 0 ID = 33888392x
   0.120495 1  2050081x        Rx   d 8 00 00 00 00 00 00 00 00  Length = 0 BitCount = 0 ID = 33882241x
   0.120637 1  2051802x        Rx   d 8 00 00 00 00 00 00 14 00  Length = 0 BitCount = 0 ID = 33888258x
   0.120787 1  2050082x        Rx   d 8 00 00 00 00 00 00 00 00  Length = 0 BitCount = 0 ID = 33882242x
   0.121037 1  2050083x        Rx   d 8 00 00 00 00 00 00 00 00  Length = 0 BitCount = 0 ID = 33882243x
   0.121276 1  2050089x        Rx   d 8 00 00 00 00 00 00 00 00  Length = 0 BitCount = 0 ID = 33882249x
   0.121524 1  205008bx        Rx   d 8 00 00 00 00 00 00 00 00  Length = 0 BitCount = 0 ID = 33882251x
   0.122280 1  2051841x        Rx   d 8 00 00 00 00 19 3E 06 00  Length = 0 BitCount = 0 ID = 33888321x
   0.123022 1  2051807x        Rx   d 8 00 00 00 00 00 00 16 00  Length = 0 BitCount = 0 ID = 33888263x
   0.123539 1  2051842x        Rx   d 8 00 00 00 00 18 21 06 00  Length = 0 BitCount = 0 ID = 33888322x
   0.124268 1  2051881x        Rx   d 8 31 0C 43 BD 00 00 00 00  Length = 0 BitCount = 0 ID = 33888385x
   0.125532 1  2051882x        Rx   d 8 31 0C C3 3D 00 00 00 00  Length = 0 BitCount = 0 ID = 33888386x
   0.128168 1  20518c9x        Rx   d 8 37 00 00 00 F4 CC 5D 3E  Length = 0 BitCount = 0 ID = 33888457x
   0.129106 1  2051803x        Rx   d 8 00 00 00 00 00 00 14 00  Length = 0 BitCount = 0 ID = 33888259x
   0.130068 1  2051808x        Rx   d 8 00 00 00 00 00 00 34 00  Length = 0 BitCount = 0 ID = 33888264x
   0.131178 1  2050084x        Rx   d 8 00 00 00 00 00 00 00 00  Length = 0 BitCount = 0 ID = 33882244x
   0.131396 1  2050085x        Rx   d 8 00 00 00 00 00 00 00 00  Length = 0 BitCount = 0 ID = 33882245x
   0.131621 1  2050086x        Rx   d 8 00 00 00 00 00 00 00 00  Length = 0 BitCount = 0 ID = 33882246x
   0.131867 1  2050087x        Rx   d 8 00 00 00 00 00 00 00 00  Length = 0 BitCount = 0 ID = 33882247x
   0.132113 1  2050088x        Rx   d 8 00 00 00 00 00 00 00 00  Length = 0 BitCount = 0 ID = 33882248x
   0.134278 1  2051801x        Rx   d 8 00 00 00 00 00 00 14 00  Length = 0 BitCount = 0 ID = 33888257x
   0.135008 1  20518c7x        Rx   d 8 31 00 00 00 40 C6 44 3E  Length = 0 BitCount = 0 ID = 33888455x
   0.136017 1  2051804x        Rx   d 8 00 00 00 00 00 00 16 00  Length = 0 BitCount = 0 ID = 33888260x
   0.136182 1  2051809x        Rx   d 8 00 00 00 00 00 00 34 00  Length = 0 BitCount = 0 ID = 33888265x
   0.138716 1  2051805x        Rx   d 8 00 00 00 00 00 00 14 00  Length = 0 BitCount = 0 ID = 33888261x
   0.139129 1  205188bx        Rx   d 8 31 0C C3 3C 00 00 00 00  Length = 0 BitCount = 0 ID = 33888395x
   0.139420 1  2052c80x        Rx   d 8 00 00 00 00 00 00 00 00  Length = 0 BitCount = 0 ID = 33893504x
   0.140703 1  20518c5x        Rx   d 8 30 00 00 00 88 C0 40 3E  Length = 0 BitCount = 0 ID = 33888453x
   0.141011 1  2051847x        Rx   d 8 00 00 00 80 17 2C 06 00  Length = 0 BitCount = 0 ID = 33888327x
   0.141963 1  2050081x        Rx   d 8 00 00 00 00 00 00 00 00  Length = 0 BitCount = 0 ID = 33882241x
   0.142239 1  2050082x        Rx   d 8 00 00 00 00 00 00 00 00  Length = 0 BitCount = 0 ID = 33882242x
   0.142505 1  2050083x        Rx   d 8 00 00 00 00 00 00 00 00  Length = 0 BitCount = 0 ID = 33882243x
   0.142730 1  2050089x        Rx   d 8 00 00 00 00 00 00 00 00  Length = 0 BitCount = 0 ID = 33882249x
   0.142931 1  2051806x        Rx   d 8 00 00 00 00 00 00 14 00  Length = 0 BitCount = 0 ID = 33888262x
   0.143082 1  205008bx        Rx   d 8 00 00 00 00 00 00 00 00  Length = 0 BitCount = 0 ID = 33882251x
   0.143227 1  2051887x        Rx   d 8 00 00 00 00 00 00 00 00  Length = 0 BitCount = 0 ID = 33888391x
   0.144135 1  205180bx        Rx   d 8 00 00 00 00 00 00 34 00  Length = 0 BitCount = 0 ID = 33888267x
   0.145545 1  2051802x        Rx   d 8 00 00 00 00 00 00 14 00  Length = 0 BitCount = 0 ID = 33888258x
   0.145928 1  2051846x        Rx   d 8 00 00 00 00 17 1B 06 00  Length = 0 BitCount = 0 ID = 33888326x
   0.146263 1  20518c1x        Rx   d 8 31 00 00 00 0A 71 47 3E  Length = 0 BitCount = 0 ID = 33888449x
   0.147532 1  20518c2x        Rx   d 8 36 00 00 00 9C 2E 58 3E  Length = 0 BitCount = 0 ID = 33888450x
   0.147939 1  2051886x        Rx   d 8 00 00 00 00 00 00 00 00  Length = 0 BitCount = 0 ID = 33888390x
   0.148084 1  2051807x        Rx   d 8 00 00 00 00 00 00 16 00  Length = 0 BitCount = 0 ID = 33888263x
   0.148229 1  20518c4x        Rx   d 8 2E 00 00 00 96 CC 3A 3E  Length = 0 BitCount = 0 ID = 33888452x
   0.149085 1  2051883x        Rx   d 8 24 49 92 BD 00 00 00 00  Length = 0 BitCount = 0 ID = 33888387x
   0.149926 1  20518c6x        Rx   d 8 2F 00 00 00 34 78 3F 3E  Length = 0 BitCount = 0 ID = 33888454x
   0.151088 1  20518c3x        Rx   d 8 31 00 00 00 5E 2F 46 3E  Length = 0 BitCount = 0 ID = 33888451x
   0.151223 1  20518cbx        Rx   d 8 2D 00 00 00 58 86 35 3E  Length = 0 BitCount = 0 ID = 33888459x
   0.152010 1  20518c8x        Rx   d 8 34 00 00 00 58 33 52 3E  Length = 0 BitCount = 0 ID = 33888456x
   0.152876 1  2050084x        Rx   d 8 00 00 00 00 00 00 00 00  Length = 0 BitCount = 0 ID = 33882244x
   0.153111 1  2050085x        Rx   d 8 00 00 00 00 00 00 00 00  Length = 0 BitCount = 0 ID = 33882245x
   0.153340 1  2050086x        Rx   d 8 00 00 00 00 00 00 00 00  Length = 0 BitCount = 0 ID = 33882246x
   0.153580 1  2050087x        Rx   d 8 00 00 00 00 00 00 00 00  Length = 0 BitCount = 0 ID = 33882247x
   0.153821 1  2050088x        Rx   d 8 00 00 00 00 00 00 00 00  Length = 0 BitCount = 0 ID = 33882248x
   0.154096 1  2051803x        Rx   d 8 00 00 00 00 00 00 14 00  Length = 0 BitCount = 0 ID = 33888259x
   0.155015 1  2051808x        Rx   d 8 00 00 00 00 00 00 34 00  Length = 0 BitCount = 0 ID = 33888264x
   0.157120 1  205184bx        Rx   d 8 00 00 00 00 19 32 06 00  Length = 0 BitCount = 0 ID = 33888331x
   0.159260 1  2051801x        Rx   d 8 00 00 00 00 00 00 14 00  Length = 0 BitCount = 0 ID = 33888257x
   0.161006 1  2051804x        Rx   d 8 00 00 00 00 00 00 16 00  Length = 0 BitCount = 0 ID = 33888260x
   0.161169 1  2051809x        Rx   d 8 00 00 00 00 00 00 34 00  Length = 0 BitCount = 0 ID = 33888265x
   0.163678 1  2050081x        Rx   d 8 00 00 00 00 00 00 00 00  Length = 0 BitCount = 0 ID = 33882241x
   0.163825 1  2051805x        Rx   d 8 00 00 00 00 00 00 14 00  Length = 0 BitCount = 0 ID = 33888261x
   0.163979 1  2050082x        Rx   d 8 00 00 00 00 00 00 00 00  Length = 0 BitCount = 0 ID = 33882242x
   0.164123 1  2051844x        Rx   d 8 00 00 00 80 18 22 06 00  Length = 0 BitCount = 0 ID = 33888324x
   0.164268 1  2050083x        Rx   d 8 00 00 00 00 00 00 00 00  Length = 0 BitCount = 0 ID = 33882243x
   0.164410 1  2051849x        Rx   d 8 00 00 00 00 18 08 06 00  Length = 0 BitCount = 0 ID = 33888329x
   0.164553 1  2050089x        Rx   d 8 00 00 00 00 00 00 00 00  Length = 0 BitCount = 0 ID = 33882249x
   0.164829 1  205008bx        Rx   d 8 00 00 00 00 00 00 00 00  Length = 0 BitCount = 0 ID = 33882251x
   0.165082 1  2052c80x        Rx   d 8 00 00 00 00 00 00 00 00  Length = 0 BitCount = 0 ID = 33893504x
   0.165999 1  2051884x        Rx   d 8 00 00 00 00 00 00 00 00  Length = 0 BitCount = 0 ID = 33888388x
   0.166160 1  2051889x        Rx   d 8 31 0C C3 BC 00 00 00 00  Length = 0 BitCount = 0 ID = 33888393x
   0.166685 1  2051845x        Rx   d 8 00 00 00 00 19 4D 06 00  Length = 0 BitCount = 0 ID = 33888325x
   0.167077 1  2051843x        Rx   d 8 00 00 00 00 19 2F 06 00  Length = 0 BitCount = 0 ID = 33888323x
   0.167923 1  2051806x        Rx   d 8 00 00 00 00 00 00 14 00  Length = 0 BitCount = 0 ID = 33888262x
   0.168059 1  2051848x        Rx   d 8 00 00 00 00 19 1D 06 00  Length = 0 BitCount = 0 ID = 33888328x
   0.168688 1  2051885x        Rx   d 8 00 00 00 00 00 00 00 00  Length = 0 BitCount = 0 ID = 33888389x
   0.169117 1  205180bx        Rx   d 8 00 00 00 00 00 00 34 00  Length = 0 BitCount = 0 ID = 33888267x
   0.170004 1  2051888x        Rx   d 8 00 00 00 00 00 00 00 00  Length = 0 BitCount = 0 ID = 33888392x
   0.170522 1  2051802x        Rx   d 8 00 00 00 00 00 00 14 00  Length = 0 BitCount = 0 ID = 33888258x
   0.172252 1  2051841x        Rx   d 8 00 00 00 00 19 3D 06 00  Length = 0 BitCount = 0 ID = 33888321x
   0.172990 1  2051807x        Rx   d 8 00 00 00 00 00 00 16 00  Length = 0 BitCount = 0 ID = 33888263x
   0.173516 1  2051842x        Rx   d 8 00 00 00 00 18 20 06 00  Length = 0 BitCount = 0 ID = 33888322x
   0.174253 1  2051881x        Rx   d 8 31 0C 43 BD 00 00 00 00  Length = 0 BitCount = 0 ID = 33888385x
   0.174399 1  2050084x        Rx   d 8 00 00 00 00 00 00 00 00  Length = 0 BitCount = 0 ID = 33882244x
   0.174642 1  2050085x        Rx   d 8 00 00 00 00 00 00 00 00  Length = 0 BitCount = 0 ID = 33882245x
   0.174868 1  2050086x        Rx   d 8 00 00 00 00 00 00 00 00  Length = 0 BitCount = 0 ID = 33882246x
   0.175114 1  2050087x        Rx   d 8 00 00 00 00 00 00 00 00  Length = 0 BitCount = 0 ID = 33882247x
   0.175359 1  2050088x        Rx   d 8 00 00 00 00 00 00 00 00  Length = 0 BitCount = 0 ID = 33882248x
   0.175523 1  2051882x        Rx   d 8 31 0C C3 3D 00 00 00 00  Length = 0 BitCount = 0 ID = 33888386x
   0.178150 1  20518c9x        Rx   d 8 37 00 00 00 7C 9A 5D 3E  Length = 0 BitCount = 0 ID = 33888457x
   0.179075 1  2051803x        Rx   d 8 00 00 00 00 00 00 14 00  Length = 0 BitCount = 0 ID = 33888259x
   0.180001 1  2051808x        Rx   d 8 00 00 00 00 00 00 34 00  Length = 0 BitCount = 0 ID = 33888264x
   0.184256 1  2051801x        Rx   d 8 00 00 00 00 00 00 14 00  Length = 0 BitCount = 0 ID = 33888257x
   0.184979 1  20518c7x        Rx   d 8 31 00 00 00 38 17 45 3E  Length = 0 BitCount = 0 ID = 33888455x
   0.185258 1  2050081x        Rx   d 8 00 00 00 00 00 00 00 00  Length = 0 BitCount = 0 ID = 33882241x
   0.185480 1  2050082x        Rx   d 8 00 00 00 00 00 00 00 00  Length = 0 BitCount = 0 ID = 33882242x
   0.185696 1  2050083x        Rx   d 8 00 00 00 00 00 00 00 00  Length = 0 BitCount = 0 ID = 33882243x
   0.185981 1  2050089x        Rx   d 8 00 00 00 00 00 00 00 00  Length = 0 BitCount = 0 ID = 33882249x
   0.186131 1  2051804x        Rx   d 8 00 00 00 00 00 00 16 00  Length = 0 BitCount = 0 ID = 33888260x
   0.186277 1  205008bx        Rx   d 8 00 00 00 00 00 00 00 00  Length = 0 BitCount = 0 ID = 33882251x
   0.186419 1  2051809x        Rx   d 8 00 00 00 00 00 00 34 00  Length = 0 BitCount = 0 ID = 33888265x
   0.188684 1  2051805x        Rx   d 8 00 00 00 00 00 00 14 00  Length = 0 BitCount = 0 ID = 33888261x
   0.189106 1  205188bx        Rx   d 8 31 0C C3 3C 00 00 00 00  Length = 0 BitCount = 0 ID = 33888395x
   0.190243 1  2052c80x        Rx   d 8 00 00 00 00 00 00 00 00  Length = 0 BitCount = 0 ID = 33893504x
   0.190681 1  20518c5x        Rx   d 8 30 00 00 00 EA 05 41 3E  Length = 0 BitCount = 0 ID = 33888453x
   0.190980 1  2051847x        Rx   d 8 00 00 00 80 17 2B 06 00  Length = 0 BitCount = 0 ID = 33888327x
   0.192906 1  2051806x        Rx   d 8 00 00 00 00 00 00 14 00  Length = 0 BitCount = 0 ID = 33888262x
   0.193050 1  2051887x        Rx   d 8 00 00 00 00 00 00 00 00  Length = 0 BitCount = 0 ID = 33888391x
   0.194109 1  205180bx        Rx   d 8 00 00 00 00 00 00 34 00  Length = 0 BitCount = 0 ID = 33888267x
   0.195513 1  2051802x        Rx   d 8 00 00 00 00 00 00 14 00  Length = 0 BitCount = 0 ID = 33888258x
   0.195885 1  2050084x        Rx   d 8 00 00 00 00 00 00 00 00  Length = 0 BitCount = 0 ID = 33882244x
   0.196032 1  2051846x        Rx   d 8 00 00 00 00 17 1B 06 00  Length = 0 BitCount = 0 ID = 33888326x
   0.196172 1  2050085x        Rx   d 8 00 00 00 00 00 00 00 00  Length = 0 BitCount = 0 ID = 33882245x
   0.196314 1  20518c1x        Rx   d 8 31 00 00 00 CC 4A 47 3E  Length = 0 BitCount = 0 ID = 33888449x
   0.196460 1  2050086x        Rx   d 8 00 00 00 00 00 00 00 00  Length = 0 BitCount = 0 ID = 33882246x
   0.196736 1  2050087x        Rx   d 8 00 00 00 00 00 00 00 00  Length = 0 BitCount = 0 ID = 33882247x
   0.196955 1  2050088x        Rx   d 8 00 00 00 00 00 00 00 00  Length = 0 BitCount = 0 ID = 33882248x
   0.197501 1  20518c2x        Rx   d 8 35 00 00 00 4E CF 57 3E  Length = 0 BitCount = 0 ID = 33888450x
   0.197900 1  2051886x        Rx   d 8 00 00 00 00 00 00 00 00  Length = 0 BitCount = 0 ID = 33888390x
   0.198052 1  2051807x        Rx   d 8 00 00 00 00 00 00 16 00  Length = 0 BitCount = 0 ID = 33888263x
   0.198189 1  20518c4x        Rx   d 8 2E 00 00 00 5D 1C 3B 3E  Length = 0 BitCount = 0 ID = 33888452x
   0.199056 1  2051883x        Rx   d 8 24 49 92 BD 00 00 00 00  Length = 0 BitCount = 0 ID = 33888387x
   0.199897 1  20518c6x        Rx   d 8 2F 00 00 00 60 4A 3F 3E  Length = 0 BitCount = 0 ID = 33888454x
   0.201059 1  20518c3x        Rx   d 8 31 00 00 00 8F 94 45 3E  Length = 0 BitCount = 0 ID = 33888451x
   0.201203 1  20518cbx        Rx   d 8 2D 00 00 00 04 10 35 3E  Length = 0 BitCount = 0 ID = 33888459x
   0.202019 1  20518c8x        Rx   d 8 34 00 00 00 AA 35 52 3E  Length = 0 BitCount = 0 ID = 33888456x
   0.204063 1  2051803x        Rx   d 8 00 00 00 00 00 00 14 00  Length = 0 BitCount = 0 ID = 33888259x
   0.204992 1  2051808x        Rx   d 8 00 00 00 00 00 00 34 00  Length = 0 BitCount = 0 ID = 33888264x
   0.206680 1  2050081x        Rx   d 8 00 00 00 00 00 00 00 00  Length = 0 BitCount = 0 ID = 33882241x
   0.206913 1  2050082x        Rx   d 8 00 00 00 00 00 00 00 00  Length = 0 BitCount = 0 ID = 33882242x
   0.207093 1  205184bx        Rx   d 8 00 00 00 00 19 32 06 00  Length = 0 BitCount = 0 ID = 33888331x
   0.207245 1  2050083x        Rx   d 8 00 00 00 00 00 00 00 00  Length = 0 BitCount = 0 ID = 33882243x
   0.209232 1  2051801x        Rx   d 8 00 00 00 00 00 00 14 00  Length = 0 BitCount = 0 ID = 33888257x
   0.210306 1  2050089x        Rx   d 8 00 00 00 00 00 00 00 00  Length = 0 BitCount = 0 ID = 33882249x
   0.210524 1  205008bx        Rx   d 8 00 00 00 00 00 00 00 00  Length = 0 BitCount = 0 ID = 33882251x
   0.210981 1  2051804x        Rx   d 8 00 00 00 00 00 00 16 00  Length = 0 BitCount = 0 ID = 33888260x
   0.211134 1  2051809x        Rx   d 8 00 00 00 00 00 00 34 00  Length = 0 BitCount = 0 ID = 33888265x
   0.213667 1  2051805x        Rx   d 8 00 00 00 00 00 00 14 00  Length = 0 BitCount = 0 ID = 33888261x
   0.213974 1  2051844x        Rx   d 8 00 00 00 80 18 22 06 00  Length = 0 BitCount = 0 ID = 33888324x
   0.214135 1  2051849x        Rx   d 8 00 00 00 00 18 09 06 00  Length = 0 BitCount = 0 ID = 33888329x
   0.214452 1  2052c80x        Rx   d 8 00 00 00 00 00 00 00 00  Length = 0 BitCount = 0 ID = 33893504x
   0.215692 1  2052c40x        Rx   d 8 02 00 05 01 00 00 00 00  Length = 0 BitCount = 0 ID = 33893440x
   0.215981 1  2051884x        Rx   d 8 00 00 00 00 00 00 00 00  Length = 0 BitCount = 0 ID = 33888388x
   0.216172 1  2051889x        Rx   d 8 31 0C C3 BC 00 00 00 00  Length = 0 BitCount = 0 ID = 33888393x
   0.216692 1  2051845x        Rx   d 8 00 00 00 00 19 4E 06 00  Length = 0 BitCount = 0 ID = 33888325x
   0.217046 1  2051843x        Rx   d 8 00 00 00 00 19 2E 06 00  Length = 0 BitCount = 0 ID = 33888323x
   0.217622 1  2050084x        Rx   d 8 00 00 00 00 00 00 00 00  Length = 0 BitCount = 0 ID = 33882244x
   0.217864 1  2050085x        Rx   d 8 00 00 00 00 00 00 00 00  Length = 0 BitCount = 0 ID = 33882245x
   0.218009 1  2051806x        Rx   d 8 00 00 00 00 00 00 14 00  Length = 0 BitCount = 0 ID = 33888262x
   0.218155 1  2050086x        Rx   d 8 00 00 00 00 00 00 00 00  Length = 0 BitCount = 0 ID = 33882246x
   0.218295 1  2051848x        Rx   d 8 00 00 00 00 19 1E 06 00  Length = 0 BitCount = 0 ID = 33888328x
   0.218447 1  2050087x        Rx   d 8 00 00 00 00 00 00 00 00  Length = 0 BitCount = 0 ID = 33882247x
   0.218665 1  2051885x        Rx   d 8 00 00 00 00 00 00 00 00  Length = 0 BitCount = 0 ID = 33888389x
   0.218809 1  2050088x        Rx   d 8 00 00 00 00 00 00 00 00  Length = 0 BitCount = 0 ID = 33882248x
   0.219096 1  205180bx        Rx   d 8 00 00 00 00 00 00 34 00  Length = 0 BitCount = 0 ID = 33888267x
   0.219993 1  2051888x        Rx   d 8 00 00 00 00 00 00 00 00  Length = 0 BitCount = 0 ID = 33888392x
   0.220501 1  2051802x        Rx   d 8 00 00 00 00 00 00 14 00  Length = 0 BitCount = 0 ID = 33888258x
   0.222250 1  2051841x        Rx   d 8 00 00 00 00 19 3E 06 00  Length = 0 BitCount = 0 ID = 33888321x
   0.222972 1  2051807x        Rx   d 8 00 00 00 00 00 00 16 00  Length = 0 BitCount = 0 ID = 33888263x
   0.223490 1  2051842x        Rx   d 8 00 00 00 00 18 21 06 00  Length = 0 BitCount = 0 ID = 33888322x
   0.224211 1  2051881x        Rx   d 8 31 0C 43 BD 00 00 00 00  Length = 0 BitCount = 0 ID = 33888385x
   0.225484 1  2051882x        Rx   d 8 31 0C C3 3D 00 00 00 00  Length = 0 BitCount = 0 ID = 33888386x
   0.228126 1  20518c9x        Rx   d 8 37 00 00 00 8E B2 5D 3E  Length = 0 BitCount = 0 ID = 33888457x
   0.229043 1  2051803x        Rx   d 8 00 00 00 00 00 00 14 00  Length = 0 BitCount = 0 ID = 33888259x
   0.229986 1  2051808x        Rx   d 8 00 00 00 00 00 00 34 00  Length = 0 BitCount = 0 ID = 33888264x
   0.230574 1  2050081x        Rx   d 8 00 00 00 00 00 00 00 00  Length = 0 BitCount = 0 ID = 33882241x
   0.230809 1  2050082x        Rx   d 8 00 00 00 00 00 00 00 00  Length = 0 BitCount = 0 ID = 33882242x
   0.231046 1  2050083x        Rx   d 8 00 00 00 00 00 00 00 00  Length = 0 BitCount = 0 ID = 33882243x
   0.231260 1  2050089x        Rx   d 8 00 00 00 00 00 00 00 00  Length = 0 BitCount = 0 ID = 33882249x
   0.231499 1  205008bx        Rx   d 8 00 00 00 00 00 00 00 00  Length = 0 BitCount = 0 ID = 33882251x
   0.234228 1  2051801x        Rx   d 8 00 00 00 00 00 00 14 00  Length = 0 BitCount = 0 ID = 33888257x
   0.234983 1  20518c7x        Rx   d 8 31 00 00 00 D8 B3 44 3E  Length = 0 BitCount = 0 ID = 33888455x
   0.235997 1  2051804x        Rx   d 8 00 00 00 00 00 00 16 00  Length = 0 BitCount = 0 ID = 33888260x
   0.236136 1  2051809x        Rx   d 8 00 00 00 00 00 00 34 00  Length = 0 BitCount = 0 ID = 33888265x
   0.238647 1  2051805x        Rx   d 8 00 00 00 00 00 00 14 00  Length = 0 BitCount = 0 ID = 33888261x
   0.239068 1  2050084x        Rx   d 8 00 00 00 00 00 00 00 00  Length = 0 BitCount = 0 ID = 33882244x
   0.239211 1  205188bx        Rx   d 8 31 0C C3 3C 00 00 00 00  Length = 0 BitCount = 0 ID = 33888395x
   0.239357 1  2050085x        Rx   d 8 00 00 00 00 00 00 00 00  Length = 0 BitCount = 0 ID = 33882245x
   0.239603 1  2050086x        Rx   d 8 00 00 00 00 00 00 00 00  Length = 0 BitCount = 0 ID = 33882246x
   0.239851 1  2050087x        Rx   d 8 00 00 00 00 00 00 00 00  Length = 0 BitCount = 0 ID = 33882247x
   0.240074 1  2050088x        Rx   d 8 00 00 00 00 00 00 00 00  Length = 0 BitCount = 0 ID = 33882248x
   0.240296 1  2052c80x        Rx   d 8 00 00 00 00 00 00 00 00  Length = 0 BitCount = 0 ID = 33893504x
   0.240677 1  20518c5x        Rx   d 8 30 00 00 00 FA D1 40 3E  Length = 0 BitCount = 0 ID = 33888453x
   0.240965 1  2051847x        Rx   d 8 00 00 00 80 17 2A 06 00  Length = 0 BitCount = 0 ID = 33888327x
   0.242884 1  2051806x        Rx   d 8 00 00 00 00 00 00 14 00  Length = 0 BitCount = 0 ID = 33888262x
   0.243024 1  2051887x        Rx   d 8 00 00 00 00 00 00 00 00  Length = 0 BitCount = 0 ID = 33888391x
   0.244083 1  205180bx        Rx   d 8 00 00 00 00 00 00 34 00  Length = 0 BitCount = 0 ID = 33888267x
   0.245480 1  2051802x        Rx   d 8 00 00 00 00 00 00 14 00  Length = 0 BitCount = 0 ID = 33888258x
   0.245877 1  2051846x        Rx   d 8 00 00 00 00 17 1B 06 00  Length = 0 BitCount = 0 ID = 33888326x
   0.246242 1  20518c1x        Rx   d 8 31 00 00 00 22 0F 47 3E  Length = 0 BitCount = 0 ID = 33888449x
   0.247489 1  20518c2x        Rx   d 8 35 00 00 00 82 7F 57 3E  Length = 0 BitCount = 0 ID = 33888450x
   0.247870 1  2051886x        Rx   d 8 00 00 00 00 00 00 00 00  Length = 0 BitCount = 0 ID = 33888390x
   0.248025 1  2051807x        Rx   d 8 00 00 00 00 00 00 16 00  Length = 0 BitCount = 0 ID = 33888263x
   0.248161 1  20518c4x        Rx   d 8 2E 00 00 00 28 C5 3A 3E  Length = 0 BitCount = 0 ID = 33888452x
   0.249029 1  2051883x        Rx   d 8 24 49 92 BD 00 00 00 00  Length = 0 BitCount = 0 ID = 33888387x
   0.249868 1  20518c6x        Rx   d 8 2F 00 00 00 AD 5B 3F 3E  Length = 0 BitCount = 0 ID = 33888454x
   0.250954 1  2050081x        Rx   d 8 00 00 00 00 00 00 00 00  Length = 0 BitCount = 0 ID = 33882241x
   0.251099 1  20518c3x        Rx   d 8 31 00 00 00 22 5B 45 3E  Length = 0 BitCount = 0 ID = 33888451x
   0.251244 1  2050082x        Rx   d 8 00 00 00 00 00 00 00 00  Length = 0 BitCount = 0 ID = 33882242x
   0.251387 1  20518cbx        Rx   d 8 2D 00 00 00 69 97 35 3E  Length = 0 BitCount = 0 ID = 33888459x
   0.251536 1  2050083x        Rx   d 8 00 00 00 00 00 00 00 00  Length = 0 BitCount = 0 ID = 33882243x
   0.251759 1  2050089x        Rx   d 8 00 00 00 00 00 00 00 00  Length = 0 BitCount = 0 ID = 33882249x
   0.251967 1  20518c8x        Rx   d 8 34 00 00 00 E0 80 52 3E  Length = 0 BitCount = 0 ID = 33888456x
   0.252111 1  205008bx        Rx   d 8 00 00 00 00 00 00 00 00  Length = 0 BitCount = 0 ID = 33882251x
   0.254042 1  2051803x        Rx   d 8 00 00 00 00 00 00 14 00  Length = 0 BitCount = 0 ID = 33888259x
   0.254964 1  2051808x        Rx   d 8 00 00 00 00 00 00 34 00  Length = 0 BitCount = 0 ID = 33888264x
   0.257078 1  205184bx        Rx   d 8 00 00 00 00 19 32 06 00  Length = 0 BitCount = 0 ID = 33888331x
   0.259206 1  2051801x        Rx   d 8 00 00 00 00 00 00 14 00  Length = 0 BitCount = 0 ID = 33888257x
   0.260698 1  2050084x        Rx   d 8 00 00 00 00 00 00 00 00  Length = 0 BitCount = 0 ID = 33882244x
   0.260916 1  2050085x        Rx   d 8 00 00 00 00 00 00 00 00  Length = 0 BitCount = 0 ID = 33882245x
   0.261061 1  2051804x        Rx   d 8 00 00 00 00 00 00 16 00  Length = 0 BitCount = 0 ID = 33888260x
   0.261212 1  2050086x        Rx   d 8 00 00 00 00 00 00 00 00  Length = 0 BitCount = 0 ID = 33882246x
   0.261359 1  2051809x        Rx   d 8 00 00 00 00 00 00 34 00  Length = 0 BitCount = 0 ID = 33888265x
   0.261501 1  2050087x        Rx   d 8 00 00 00 00 00 00 00 00  Length = 0 BitCount = 0 ID = 33882247x
   0.261733 1  2050088x        Rx   d 8 00 00 00 00 00 00 00 00  Length = 0 BitCount = 0 ID = 33882248x
   0.263646 1  2051805x        Rx   d 8 00 00 00 00 00 00 14 00  Length = 0 BitCount = 0 ID = 33888261x
   0.263953 1  2051844x        Rx   d 8 00 00 00 80 18 22 06 00  Length = 0 BitCount = 0 ID = 33888324x
   0.264197 1  2051849x        Rx   d 8 00 00 00 00 18 09 06 00  Length = 0 BitCount = 0 ID = 33888329x
   0.264582 1  2052c80x        Rx   d 8 00 00 00 00 00 00 00 00  Length = 0 BitCount = 0 ID = 33893504x
   0.265950 1  2051884x        Rx   d 8 00 00 00 00 00 00 00 00  Length = 0 BitCount = 0 ID = 33888388x
   0.266106 1  2051889x        Rx   d 8 31 0C C3 BC 00 00 00 00  Length = 0 BitCount = 0 ID = 33888393x
   0.266641 1  2051845x        Rx   d 8 00 00 00 00 19 4E 06 00  Length = 0 BitCount = 0 ID = 33888325x
   0.267025 1  2051843x        Rx   d 8 00 00 00 00 19 2E 06 00  Length = 0 BitCount = 0 ID = 33888323x
   0.267876 1  2051806x        Rx   d 8 00 00 00 00 00 00 14 00  Length = 0 BitCount = 0 ID = 33888262x
   0.268026 1  2051848x        Rx   d 8 00 00 00 00 19 1C 06 00  Length = 0 BitCount = 0 ID = 33888328x
   0.268639 1  2051885x        Rx   d 8 00 00 00 00 00 00 00 00  Length = 0 BitCount = 0 ID = 33888389x
   0.269076 1  205180bx        Rx   d 8 00 00 00 00 00 00 34 00  Length = 0 BitCount = 0 ID = 33888267x
   0.269956 1  2051888x        Rx   d 8 00 00 00 00 00 00 00 00  Length = 0 BitCount = 0 ID = 33888392x
   0.270467 1  2051802x        Rx   d 8 00 00 00 00 00 00 14 00  Length = 0 BitCount = 0 ID = 33888258x
   0.271684 1  2050081x        Rx   d 8 00 00 00 00 00 00 00 00  Length = 0 BitCount = 0 ID = 33882241x
   0.271939 1  2050082x        Rx   d 8 00 00 00 00 00 00 00 00  Length = 0 BitCount = 0 ID = 33882242x
   0.272175 1  2050083x        Rx   d 8 00 00 00 00 00 00 00 00  Length = 0 BitCount = 0 ID = 33882243x
   0.272315 1  2051841x        Rx   d 8 00 00 00 00 19 3E 06 00  Length = 0 BitCount = 0 ID = 33888321x
   0.272459 1  2050089x        Rx   d 8 00 00 00 00 00 00 00 00  Length = 0 BitCount = 0 ID = 33882249x
   0.272693 1  205008bx        Rx   d 8 00 00 00 00 00 00 00 00  Length = 0 BitCount = 0 ID = 33882251x
   0.272941 1  2051807x        Rx   d 8 00 00 00 00 00 00 16 00  Length = 0 BitCount = 0 ID = 33888263x
   0.273456 1  2051842x        Rx   d 8 00 00 00 00 18 21 06 00  Length = 0 BitCount = 0 ID = 33888322x
   0.274187 1  2051881x        Rx   d 8 31 0C 43 BD 00 00 00 00  Length = 0 BitCount = 0 ID = 33888385x
   0.275460 1  2051882x        Rx   d 8 31 0C C3 3D 00 00 00 00  Length = 0 BitCount = 0 ID = 33888386x
   0.278084 1  20518c9x        Rx   d 8 37 00 00 00 18 BB 5D 3E  Length = 0 BitCount = 0 ID = 33888457x
   0.279025 1  2051803x        Rx   d 8 00 00 00 00 00 00 14 00  Length = 0 BitCount = 0 ID = 33888259x
   0.279964 1  2051808x        Rx   d 8 00 00 00 00 00 00 34 00  Length = 0 BitCount = 0 ID = 33888264x
   0.282719 1  2050084x        Rx   d 8 00 00 00 00 00 00 00 00  Length = 0 BitCount = 0 ID = 33882244x
   0.283029 1  2050085x        Rx   d 8 00 00 00 00 00 00 00 00  Length = 0 BitCount = 0 ID = 33882245x
   0.283321 1  2050086x        Rx   d 8 00 00 00 00 00 00 00 00  Length = 0 BitCount = 0 ID = 33882246x
   0.283536 1  2050087x        Rx   d 8 00 00 00 00 00 00 00 00  Length = 0 BitCount = 0 ID = 33882247x
   0.283811 1  2050088x        Rx   d 8 00 00 00 00 00 00 00 00  Length = 0 BitCount = 0 ID = 33882248x
   0.284186 1  2051801x        Rx   d 8 00 00 00 00 00 00 14 00  Length = 0 BitCount = 0 ID = 33888257x
   0.284924 1  20518c7x        Rx   d 8 31 00 00 00 1C E9 44 3E  Length = 0 BitCount = 0 ID = 33888455x
   0.285942 1  2051804x        Rx   d 8 00 00 00 00 00 00 16 00  Length = 0 BitCount = 0 ID = 33888260x
   0.286098 1  2051809x        Rx   d 8 00 00 00 00 00 00 34 00  Length = 0 BitCount = 0 ID = 33888265x
   0.288634 1  2051805x        Rx   d 8 00 00 00 00 00 00 14 00  Length = 0 BitCount = 0 ID = 33888261x
   0.289049 1  205188bx        Rx   d 8 31 0C C3 3C 00 00 00 00  Length = 0 BitCount = 0 ID = 33888395x
   0.290230 1  2052c80x        Rx   d 8 00 00 00 00 00 00 00 00  Length = 0 BitCount = 0 ID = 33893504x
   0.290620 1  20518c5x        Rx   d 8 30 00 00 00 DC 20 41 3E  Length = 0 BitCount = 0 ID = 33888453x
   0.290919 1  2051847x        Rx   d 8 00 00 00 80 17 2B 06 00  Length = 0 BitCount = 0 ID = 33888327x
   0.292848 1  2051806x        Rx   d 8 00 00 00 00 00 00 14 00  Length = 0 BitCount = 0 ID = 33888262x
   0.292996 1  2050081x        Rx   d 8 00 00 00 00 00 00 00 00  Length = 0 BitCount = 0 ID = 33882241x
   0.293141 1  2051887x        Rx   d 8 00 00 00 00 00 00 00 00  Length = 0 BitCount = 0 ID = 33888391x
   0.293813 1  2050082x        Rx   d 8 00 00 00 00 00 00 00 00  Length = 0 BitCount = 0 ID = 33882242x
   0.294048 1  205180bx        Rx   d 8 00 00 00 00 00 00 34 00  Length = 0 BitCount = 0 ID = 33888267x
   0.294202 1  2050083x        Rx   d 8 00 00 00 00 00 00 00 00  Length = 0 BitCount = 0 ID = 33882243x
   0.294467 1  2050089x        Rx   d 8 00 00 00 00 00 00 00 00  Length = 0 BitCount = 0 ID = 33882249x
   0.294716 1  205008bx        Rx   d 8 00 00 00 00 00 00 00 00  Length = 0 BitCount = 0 ID = 33882251x
   0.295459 1  2051802x        Rx   d 8 00 00 00 00 00 00 14 00  Length = 0 BitCount = 0 ID = 33888258x
   0.295845 1  2051846x        Rx   d 8 00 00 00 00 17 1B 06 00  Length = 0 BitCount = 0 ID = 33888326x
   0.296181 1  20518c1x        Rx   d 8 31 00 00 00 BE ED 47 3E  Length = 0 BitCount = 0 ID = 33888449x
   0.297450 1  20518c2x        Rx   d 8 35 00 00 00 6E 37 58 3E  Length = 0 BitCount = 0 ID = 33888450x
   0.297856 1  2051886x        Rx   d 8 00 00 00 00 00 00 00 00  Length = 0 BitCount = 0 ID = 33888390x
   0.298005 1  2051807x        Rx   d 8 00 00 00 00 00 00 16 00  Length = 0 BitCount = 0 ID = 33888263x
   0.298147 1  20518c4x        Rx   d 8 2E 00 00 00 C4 01 3B 3E  Length = 0 BitCount = 0 ID = 33888452x
   0.299005 1  2051883x        Rx   d 8 24 49 92 BD 00 00 00 00  Length = 0 BitCount = 0 ID = 33888387x
   0.299844 1  20518c6x        Rx   d 8 2F 00 00 00 6A 50 3F 3E  Length = 0 BitCount = 0 ID = 33888454x
   0.300999 1  20518c3x        Rx   d 8 31 00 00 00 1A D4 45 3E  Length = 0 BitCount = 0 ID = 33888451x
   0.301143 1  20518cbx        Rx   d 8 2D 00 00 00 04 A1 35 3E  Length = 0 BitCount = 0 ID = 33888459x
   0.301940 1  20518c8x        Rx   d 8 34 00 00 00 7E 90 52 3E  Length = 0 BitCount = 0 ID = 33888456x
   0.304003 1  2051803x        Rx   d 8 00 00 00 00 00 00 14 00  Length = 0 BitCount = 0 ID = 33888259x
   0.304738 1  2050084x        Rx   d 8 00 00 00 00 00 00 00 00  Length = 0 BitCount = 0 ID = 33882244x
   0.304935 1  2051808x        Rx   d 8 00 00 00 00 00 00 34 00  Length = 0 BitCount = 0 ID = 33888264x
   0.305079 1  2050085x        Rx   d 8 00 00 00 00 00 00 00 00  Length = 0 BitCount = 0 ID = 33882245x
   0.305313 1  2050086x        Rx   d 8 00 00 00 00 00 00 00 00  Length = 0 BitCount = 0 ID = 33882246x
   0.305588 1  2050087x        Rx   d 8 00 00 00 00 00 00 00 00  Length = 0 BitCount = 0 ID = 33882247x
   0.305820 1  2050088x        Rx   d 8 00 00 00 00 00 00 00 00  Length = 0 BitCount = 0 ID = 33882248x
   0.307036 1  205184bx        Rx   d 8 00 00 00 00 19 32 06 00  Length = 0 BitCount = 0 ID = 33888331x
   0.309180 1  2051801x        Rx   d 8 00 00 00 00 00 00 14 00  Length = 0 BitCount = 0 ID = 33888257x
   0.310919 1  2051804x        Rx   d 8 00 00 00 00 00 00 16 00  Length = 0 BitCount = 0 ID = 33888260x
   0.311084 1  2051809x        Rx   d 8 00 00 00 00 00 00 34 00  Length = 0 BitCount = 0 ID = 33888265x
   0.313609 1  2051805x        Rx   d 8 00 00 00 00 00 00 14 00  Length = 0 BitCount = 0 ID = 33888261x
   0.313957 1  2051844x        Rx   d 8 00 00 00 80 18 22 06 00  Length = 0 BitCount = 0 ID = 33888324x
   0.314097 1  2051849x        Rx   d 8 00 00 00 00 18 09 06 00  Length = 0 BitCount = 0 ID = 33888329x
   0.314903 1  2052c80x        Rx   d 8 00 00 00 00 00 00 00 00  Length = 0 BitCount = 0 ID = 33893504x
   0.315644 1  2050081x        Rx   d 8 00 00 00 00 00 00 00 00  Length = 0 BitCount = 0 ID = 33882241x
   0.315868 1  2050082x        Rx   d 8 00 00 00 00 00 00 00 00  Length = 0 BitCount = 0 ID = 33882242x
   0.316014 1  2051884x        Rx   d 8 00 00 00 00 00 00 00 00  Length = 0 BitCount = 0 ID = 33888388x
   0.316161 1  2050083x        Rx   d 8 00 00 00 00 00 00 00 00  Length = 0 BitCount = 0 ID = 33882243x
   0.316305 1  2051889x        Rx   d 8 31 0C C3 BC 00 00 00 00  Length = 0 BitCount = 0 ID = 33888393x
   0.316450 1  2050089x        Rx   d 8 00 00 00 00 00 00 00 00  Length = 0 BitCount = 0 ID = 33882249x
   0.316615 1  2051845x        Rx   d 8 00 00 00 00 19 4E 06 00  Length = 0 BitCount = 0 ID = 33888325x
   0.316761 1  205008bx        Rx   d 8 00 00 00 00 00 00 00 00  Length = 0 BitCount = 0 ID = 33882251x
   0.316996 1  2051843x        Rx   d 8 00 00 00 00 19 2E 06 00  Length = 0 BitCount = 0 ID = 33888323x
   0.317141 1  2052c40x        Rx   d 8 02 00 05 01 00 00 00 00  Length = 0 BitCount = 0 ID = 33893440x
   0.317845 1  2051806x        Rx   d 8 00 00 00 00 00 00 14 00  Length = 0 BitCount = 0 ID = 33888262x
   0.317987 1  2051848x        Rx   d 8 00 00 00 00 19 1D 06 00  Length = 0 BitCount = 0 ID = 33888328x
   0.318602 1  2051885x        Rx   d 8 00 00 00 00 00 00 00 00  Length = 0 BitCount = 0 ID = 33888389x
   0.319029 1  205180bx        Rx   d 8 00 00 00 00 00 00 34 00  Length = 0 BitCount = 0 ID = 33888267x
   0.319929 1  2051888x        Rx   d 8 00 00 00 00 00 00 00 00  Length = 0 BitCount = 0 ID = 33888392x
   0.320432 1  2051802x        Rx   d 8 00 00 00 00 00 00 14 00  Length = 0 BitCount = 0 ID = 33888258x
   0.322170 1  2051841x        Rx   d 8 00 00 00 00 19 3E 06 00  Length = 0 BitCount = 0 ID = 33888321x
   0.322909 1  2051807x        Rx   d 8 00 00 00 00 00 00 16 00  Length = 0 BitCount = 0 ID = 33888263x
   0.323444 1  2051842x        Rx   d 8 00 00 00 00 18 20 06 00  Length = 0 BitCount = 0 ID = 33888322x
   0.324200 1  2051881x        Rx   d 8 31 0C 43 BD 00 00 00 00  Length = 0 BitCount = 0 ID = 33888385x
   0.325450 1  2051882x        Rx   d 8 31 0C C3 3D 00 00 00 00  Length = 0 BitCount = 0 ID = 33888386x
   0.326007 1  2050084x        Rx   d 8 00 00 00 00 00 00 00 00  Length = 0 BitCount = 0 ID = 33882244x
   0.326701 1  2050085x        Rx   d 8 00 00 00 00 00 00 00 00  Length = 0 BitCount = 0 ID = 33882245x
   0.326951 1  2050086x        Rx   d 8 00 00 00 00 00 00 00 00  Length = 0 BitCount = 0 ID = 33882246x
   0.327173 1  2050087x        Rx   d 8 00 00 00 00 00 00 00 00  Length = 0 BitCount = 0 ID = 33882247x
   0.327396 1  2050088x        Rx   d 8 00 00 00 00 00 00 00 00  Length = 0 BitCount = 0 ID = 33882248x
   0.328070 1  20518c9x        Rx   d 8 37 00 00 00 6A F8 5D 3E  Length = 0 BitCount = 0 ID = 33888457x
   0.329006 1  2051803x        Rx   d 8 00 00 00 00 00 00 14 00  Length = 0 BitCount = 0 ID = 33888259x
   0.329935 1  2051808x        Rx   d 8 00 00 00 00 00 00 34 00  Length = 0 BitCount = 0 ID = 33888264x
   0.334182 1  2051801x        Rx   d 8 00 00 00 00 00 00 14 00  Length = 0 BitCount = 0 ID = 33888257x
   0.334910 1  20518c7x        Rx   d 8 31 00 00 00 68 F5 44 3E  Length = 0 BitCount = 0 ID = 33888455x
   0.335929 1  2051804x        Rx   d 8 00 00 00 00 00 00 16 00  Length = 0 BitCount = 0 ID = 33888260x
   0.336092 1  2051809x        Rx   d 8 00 00 00 00 00 00 34 00  Length = 0 BitCount = 0 ID = 33888265x
   0.336845 1  2050081x        Rx   d 8 00 00 00 00 00 00 00 00  Length = 0 BitCount = 0 ID = 33882241x
   0.337087 1  2050082x        Rx   d 8 00 00 00 00 00 00 00 00  Length = 0 BitCount = 0 ID = 33882242x
   0.337744 1  2050083x        Rx   d 8 00 00 00 00 00 00 00 00  Length = 0 BitCount = 0 ID = 33882243x
   0.337987 1  2050089x        Rx   d 8 00 00 00 00 00 00 00 00  Length = 0 BitCount = 0 ID = 33882249x
   0.338216 1  205008bx        Rx   d 8 00 00 00 00 00 00 00 00  Length = 0 BitCount = 0 ID = 33882251x
   0.338616 1  2051805x        Rx   d 8 00 00 00 00 00 00 14 00  Length = 0 BitCount = 0 ID = 33888261x
   0.339036 1  205188bx        Rx   d 8 31 0C C3 3C 00 00 00 00  Length = 0 BitCount = 0 ID = 33888395x
   0.339614 1  2052c80x        Rx   d 8 00 00 00 00 00 00 00 00  Length = 0 BitCount = 0 ID = 33893504x
   0.340626 1  20518c5x        Rx   d 8 30 00 00 00 64 11 41 3E  Length = 0 BitCount = 0 ID = 33888453x
   0.340917 1  2051847x        Rx   d 8 00 00 00 80 17 2A 06 00  Length = 0 BitCount = 0 ID = 33888327x
   0.342851 1  2051806x        Rx   d 8 00 00 00 00 00 00 14 00  Length = 0 BitCount = 0 ID = 33888262x
   0.342998 1  2051887x        Rx   d 8 00 00 00 00 00 00 00 00  Length = 0 BitCount = 0 ID = 33888391x
   0.344050 1  205180bx        Rx   d 8 00 00 00 00 00 00 34 00  Length = 0 BitCount = 0 ID = 33888267x
   0.345451 1  2051802x        Rx   d 8 00 00 00 00 00 00 14 00  Length = 0 BitCount = 0 ID = 33888258x
   0.345857 1  2051846x        Rx   d 8 00 00 00 00 17 1B 06 00  Length = 0 BitCount = 0 ID = 33888326x
   0.346188 1  20518c1x        Rx   d 8 31 00 00 00 B8 AA 47 3E  Length = 0 BitCount = 0 ID = 33888449x
   0.347453 1  20518c2x        Rx   d 8 35 00 00 00 F6 EB 57 3E  Length = 0 BitCount = 0 ID = 33888450x
   0.347857 1  2051886x        Rx   d 8 00 00 00 00 00 00 00 00  Length = 0 BitCount = 0 ID = 33888390x
   0.348006 1  2051807x        Rx   d 8 00 00 00 00 00 00 16 00  Length = 0 BitCount = 0 ID = 33888263x
   0.348144 1  20518c4x        Rx   d 8 2E 00 00 00 50 40 3B 3E  Length = 0 BitCount = 0 ID = 33888452x
   0.349007 1  2051883x        Rx   d 8 24 49 92 BD 00 00 00 00  Length = 0 BitCount = 0 ID = 33888387x
   0.349855 1  20518c6x        Rx   d 8 2F 00 00 00 67 52 3F 3E  Length = 0 BitCount = 0 ID = 33888454x
   0.350933 1  2050084x        Rx   d 8 00 00 00 00 00 00 00 00  Length = 0 BitCount = 0 ID = 33882244x
   0.351070 1  20518c3x        Rx   d 8 31 00 00 00 76 18 45 3E  Length = 0 BitCount = 0 ID = 33888451x
   0.351214 1  2050085x        Rx   d 8 00 00 00 00 00 00 00 00  Length = 0 BitCount = 0 ID = 33882245x
   0.351352 1  20518cbx        Rx   d 8 2D 00 00 00 71 E9 35 3E  Length = 0 BitCount = 0 ID = 33888459x
   0.351498 1  2050086x        Rx   d 8 00 00 00 00 00 00 00 00  Length = 0 BitCount = 0 ID = 33882246x
   0.351755 1  2050087x        Rx   d 8 00 00 00 00 00 00 00 00  Length = 0 BitCount = 0 ID = 33882247x
   0.351980 1  20518c8x        Rx   d 8 34 00 00 00 F0 BE 52 3E  Length = 0 BitCount = 0 ID = 33888456x
   0.352127 1  2050088x        Rx   d 8 00 00 00 00 00 00 00 00  Length = 0 BitCount = 0 ID = 33882248x
   0.354055 1  2051803x        Rx   d 8 00 00 00 00 00 00 14 00  Length = 0 BitCount = 0 ID = 33888259x
   0.354946 1  2051808x        Rx   d 8 00 00 00 00 00 00 34 00  Length = 0 BitCount = 0 ID = 33888264x
   0.357044 1  205184bx        Rx   d 8 00 00 00 00 19 32 06 00  Length = 0 BitCount = 0 ID = 33888331x
   0.358457 1  2050081x        Rx   d 8 00 00 00 00 00 00 00 00  Length = 0 BitCount = 0 ID = 33882241x
   0.358702 1  2050082x        Rx   d 8 00 00 00 00 00 00 00 00  Length = 0 BitCount = 0 ID = 33882242x
   0.358923 1  2050083x        Rx   d 8 00 00 00 00 00 00 00 00  Length = 0 BitCount = 0 ID = 33882243x
   0.359167 1  2050089x        Rx   d 8 00 00 00 00 00 00 00 00  Length = 0 BitCount = 0 ID = 33882249x
   0.359311 1  2051801x        Rx   d 8 00 00 00 00 00 00 14 00  Length = 0 BitCount = 0 ID = 33888257x
   0.359466 1  205008bx        Rx   d 8 00 00 00 00 00 00 00 00  Length = 0 BitCount = 0 ID = 33882251x
   0.360938 1  2051804x        Rx   d 8 00 00 00 00 00 00 16 00  Length = 0 BitCount = 0 ID = 33888260x
   0.361087 1  2051809x        Rx   d 8 00 00 00 00 00 00 34 00  Length = 0 BitCount = 0 ID = 33888265x
   0.363621 1  2051805x        Rx   d 8 00 00 00 00 00 00 14 00  Length = 0 BitCount = 0 ID = 33888261x
   0.363935 1  2051844x        Rx   d 8 00 00 00 80 18 23 06 00  Length = 0 BitCount = 0 ID = 33888324x
   0.364090 1  2051849x        Rx   d 8 00 00 00 00 18 09 06 00  Length = 0 BitCount = 0 ID = 33888329x
   0.364988 1  2052c80x        Rx   d 8 00 00 00 00 00 00 00 00  Length = 0 BitCount = 0 ID = 33893504x
   0.365934 1  2051884x        Rx   d 8 00 00 00 00 00 00 00 00  Length = 0 BitCount = 0 ID = 33888388x
   0.366092 1  2051889x        Rx   d 8 31 0C C3 BC 00 00 00 00  Length = 0 BitCount = 0 ID = 33888393x
   0.366626 1  2051845x        Rx   d 8 00 00 00 00 19 4F 06 00  Length = 0 BitCount = 0 ID = 33888325x
   0.367019 1  2051843x        Rx   d 8 00 00 00 00 19 2E 06 00  Length = 0 BitCount = 0 ID = 33888323x
   0.367855 1  2051806x        Rx   d 8 00 00 00 00 00 00 14 00  Length = 0 BitCount = 0 ID = 33888262x
   0.367997 1  2051848x        Rx   d 8 00 00 00 00 19 1D 06 00  Length = 0 BitCount = 0 ID = 33888328x
   0.368630 1  2051885x        Rx   d 8 00 00 00 00 00 00 00 00  Length = 0 BitCount = 0 ID = 33888389x
   0.369051 1  205180bx        Rx   d 8 00 00 00 00 00 00 34 00  Length = 0 BitCount = 0 ID = 33888267x
   0.369943 1  2051888x        Rx   d 8 00 00 00 00 00 00 00 00  Length = 0 BitCount = 0 ID = 33888392x
   0.370455 1  2051802x        Rx   d 8 00 00 00 00 00 00 14 00  Length = 0 BitCount = 0 ID = 33888258x
   0.370599 1  2050084x        Rx   d 8 00 00 00 00 00 00 00 00  Length = 0 BitCount = 0 ID = 33882244x
   0.370822 1  2050085x        Rx   d 8 00 00 00 00 00 00 00 00  Length = 0 BitCount = 0 ID = 33882245x
   0.371053 1  2050086x        Rx   d 8 00 00 00 00 00 00 00 00  Length = 0 BitCount = 0 ID = 33882246x
   0.371710 1  2050087x        Rx   d 8 00 00 00 00 00 00 00 00  Length = 0 BitCount = 0 ID = 33882247x
   0.371954 1  2050088x        Rx   d 8 00 00 00 00 00 00 00 00  Length = 0 BitCount = 0 ID = 33882248x
   0.372223 1  2051841x        Rx   d 8 00 00 00 00 19 3D 06 00  Length = 0 BitCount = 0 ID = 33888321x
   0.372940 1  2051807x        Rx   d 8 00 00 00 00 00 00 16 00  Length = 0 BitCount = 0 ID = 33888263x
   0.373467 1  2051842x        Rx   d 8 00 00 00 00 18 20 06 00  Length = 0 BitCount = 0 ID = 33888322x
   0.374188 1  2051881x        Rx   d 8 31 0C 43 BD 00 00 00 00  Length = 0 BitCount = 0 ID = 33888385x
   0.375450 1  2051882x        Rx   d 8 31 0C C3 3D 00 00 00 00  Length = 0 BitCount = 0 ID = 33888386x
   0.378092 1  20518c9x        Rx   d 8 37 00 00 00 D2 38 5E 3E  Length = 0 BitCount = 0 ID = 33888457x
   0.379028 1  2051803x        Rx   d 8 00 00 00 00 00 00 14 00  Length = 0 BitCount = 0 ID = 33888259x
   0.379960 1  2051808x        Rx   d 8 00 00 00 00 00 00 34 00  Length = 0 BitCount = 0 ID = 33888264x
   0.380502 1  2050081x        Rx   d 8 00 00 00 00 00 00 00 00  Length = 0 BitCount = 0 ID = 33882241x
   0.380750 1  2050082x        Rx   d 8 00 00 00 00 00 00 00 00  Length = 0 BitCount = 0 ID = 33882242x
   0.380973 1  2050083x        Rx   d 8 00 00 00 00 00 00 00 00  Length = 0 BitCount = 0 ID = 33882243x
   0.381230 1  2050089x        Rx   d 8 00 00 00 00 00 00 00 00  Length = 0 BitCount = 0 ID = 33882249x
   0.381485 1  205008bx        Rx   d 8 00 00 00 00 00 00 00 00  Length = 0 BitCount = 0 ID = 33882251x
   0.384231 1  2051801x        Rx   d 8 00 00 00 00 00 00 14 00  Length = 0 BitCount = 0 ID = 33888257x
   0.384960 1  20518c7x        Rx   d 8 31 00 00 00 E4 0A 45 3E  Length = 0 BitCount = 0 ID = 33888455x
   0.385984 1  2051804x        Rx   d 8 00 00 00 00 00 00 16 00  Length = 0 BitCount = 0 ID = 33888260x
   0.386126 1  2051809x        Rx   d 8 00 00 00 00 00 00 34 00  Length = 0 BitCount = 0 ID = 33888265x
   0.388634 1  2051805x        Rx   d 8 00 00 00 00 00 00 14 00  Length = 0 BitCount = 0 ID = 33888261x
   0.389065 1  205188bx        Rx   d 8 31 0C C3 3C 00 00 00 00  Length = 0 BitCount = 0 ID = 33888395x
   0.390347 1  2052c80x        Rx   d 8 00 00 00 00 00 00 00 00  Length = 0 BitCount = 0 ID = 33893504x
   0.390637 1  20518c5x        Rx   d 8 30 00 00 00 D2 24 41 3E  Length = 0 BitCount = 0 ID = 33888453x
   0.390939 1  2051847x        Rx   d 8 00 00 00 80 17 2A 06 00  Length = 0 BitCount = 0 ID = 33888327x
   0.391482 1  2050084x        Rx   d 8 00 00 00 00 00 00 00 00  Length = 0 BitCount = 0 ID = 33882244x
   0.391702 1  2050085x        Rx   d 8 00 00 00 00 00 00 00 00  Length = 0 BitCount = 0 ID = 33882245x
   0.391963 1  2050086x        Rx   d 8 00 00 00 00 00 00 00 00  Length = 0 BitCount = 0 ID = 33882246x
   0.392200 1  2050087x        Rx   d 8 00 00 00 00 00 00 00 00  Length = 0 BitCount = 0 ID = 33882247x
   0.392455 1  2050088x        Rx   d 8 00 00 00 00 00 00 00 00  Length = 0 BitCount = 0 ID = 33882248x
   0.392861 1  2051806x        Rx   d 8 00 00 00 00 00 00 14 00  Length = 0 BitCount = 0 ID = 33888262x
   0.393008 1  2051887x        Rx   d 8 00 00 00 00 00 00 00 00  Length = 0 BitCount = 0 ID = 33888391x
   0.394067 1  205180bx        Rx   d 8 00 00 00 00 00 00 34 00  Length = 0 BitCount = 0 ID = 33888267x
   0.395464 1  2051802x        Rx   d 8 00 00 00 00 00 00 14 00  Length = 0 BitCount = 0 ID = 33888258x
   0.395861 1  2051846x        Rx   d 8 00 00 00 00 17 1B 06 00  Length = 0 BitCount = 0 ID = 33888326x
   0.396226 1  20518c1x        Rx   d 8 31 00 00 00 DE AF 47 3E  Length = 0 BitCount = 0 ID = 33888449x
   0.397473 1  20518c2x        Rx   d 8 35 00 00 00 64 93 57 3E  Length = 0 BitCount = 0 ID = 33888450x
   0.397872 1  2051886x        Rx   d 8 00 00 00 00 00 00 00 00  Length = 0 BitCount = 0 ID = 33888390x
   0.398020 1  2051807x        Rx   d 8 00 00 00 00 00 00 16 00  Length = 0 BitCount = 0 ID = 33888263x
   0.398162 1  20518c4x        Rx   d 8 2E 00 00 00 6A 18 3B 3E  Length = 0 BitCount = 0 ID = 33888452x
   0.399020 1  2051883x        Rx   d 8 24 49 92 BD 00 00 00 00  Length = 0 BitCount = 0 ID = 33888387x
   0.399876 1  20518c6x        Rx   d 8 2F 00 00 00 44 B1 3F 3E  Length = 0 BitCount = 0 ID = 33888454x
   0.401028 1  20518c3x        Rx   d 8 31 00 00 00 1C AA 45 3E  Length = 0 BitCount = 0 ID = 33888451x
   0.401166 1  20518cbx        Rx   d 8 2D 00 00 00 D6 F6 35 3E  Length = 0 BitCount = 0 ID = 33888459x
   0.401960 1  20518c8x        Rx   d 8 34 00 00 00 32 FF 52 3E  Length = 0 BitCount = 0 ID = 33888456x
   0.402237 1  2050081x        Rx   d 8 00 00 00 00 00 00 00 00  Length = 0 BitCount = 0 ID = 33882241x
   0.402471 1  2050082x        Rx   d 8 00 00 00 00 00 00 00 00  Length = 0 BitCount = 0 ID = 33882242x
   0.402722 1  2050083x        Rx   d 8 00 00 00 00 00 00 00 00  Length = 0 BitCount = 0 ID = 33882243x
   0.402979 1  2050089x        Rx   d 8 00 00 00 00 00 00 00 00  Length = 0 BitCount = 0 ID = 33882249x
   0.403249 1  205008bx        Rx   d 8 00 00 00 00 00 00 00 00  Length = 0 BitCount = 0 ID = 33882251x
   0.404036 1  2051803x        Rx   d 8 00 00 00 00 00 00 14 00  Length = 0 BitCount = 0 ID = 33888259x
   0.404963 1  2051808x        Rx   d 8 00 00 00 00 00 00 34 00  Length = 0 BitCount = 0 ID = 33888264x
   0.407074 1  205184bx        Rx   d 8 00 00 00 00 19 32 06 00  Length = 0 BitCount = 0 ID = 33888331x
   0.409202 1  2051801x        Rx   d 8 00 00 00 00 00 00 14 00  Length = 0 BitCount = 0 ID = 33888257x
   0.410957 1  2051804x        Rx   d 8 00 00 00 00 00 00 16 00  Length = 0 BitCount = 0 ID = 33888260x
   0.411106 1  2051809x        Rx   d 8 00 00 00 00 00 00 34 00  Length = 0 BitCount = 0 ID = 33888265x
   0.412877 1  2050084x        Rx   d 8 00 00 00 00 00 00 00 00  Length = 0 BitCount = 0 ID = 33882244x
   0.413125 1  2050085x        Rx   d 8 00 00 00 00 00 00 00 00  Length = 0 BitCount = 0 ID = 33882245x
   0.413351 1  2050086x        Rx   d 8 00 00 00 00 00 00 00 00  Length = 0 BitCount = 0 ID = 33882246x
   0.413592 1  2050087x        Rx   d 8 00 00 00 00 00 00 00 00  Length = 0 BitCount = 0 ID = 33882247x
   0.413738 1  2051805x        Rx   d 8 00 00 00 00 00 00 14 00  Length = 0 BitCount = 0 ID = 33888261x
   0.413892 1  2050088x        Rx   d 8 00 00 00 00 00 00 00 00  Length = 0 BitCount = 0 ID = 33882248x
   0.414029 1  2051844x        Rx   d 8 00 00 00 80 18 22 06 00  Length = 0 BitCount = 0 ID = 33888324x
   0.414173 1  2051849x        Rx   d 8 00 00 00 00 18 09 06 00  Length = 0 BitCount = 0 ID = 33888329x
   0.414646 1  2052c80x        Rx   d 8 00 00 00 00 00 00 00 00  Length = 0 BitCount = 0 ID = 33893504x
   0.414896 1  2052c40x        Rx   d 8 02 00 05 01 00 00 00 00  Length = 0 BitCount = 0 ID = 33893440x
   0.415963 1  2051884x        Rx   d 8 00 00 00 00 00 00 00 00  Length = 0 BitCount = 0 ID = 33888388x
   0.416111 1  2051889x        Rx   d 8 31 0C C3 BC 00 00 00 00  Length = 0 BitCount = 0 ID = 33888393x
   0.416644 1  2051845x        Rx   d 8 00 00 00 00 19 4E 06 00  Length = 0 BitCount = 0 ID = 33888325x
   0.417038 1  2051843x        Rx   d 8 00 00 00 00 19 2F 06 00  Length = 0 BitCount = 0 ID = 33888323x
   0.417894 1  2051806x        Rx   d 8 00 00 00 00 00 00 14 00  Length = 0 BitCount = 0 ID = 33888262x
   0.418031 1  2051848x        Rx   d 8 00 00 00 00 19 1D 06 00  Length = 0 BitCount = 0 ID = 33888328x
   0.418651 1  2051885x        Rx   d 8 00 00 00 00 00 00 00 00  Length = 0 BitCount = 0 ID = 33888389x
   0.419073 1  205180bx        Rx   d 8 00 00 00 00 00 00 34 00  Length = 0 BitCount = 0 ID = 33888267x
   0.419968 1  2051888x        Rx   d 8 00 00 00 00 00 00 00 00  Length = 0 BitCount = 0 ID = 33888392x
   0.420478 1  2051802x        Rx   d 8 00 00 00 00 00 00 14 00  Length = 0 BitCount = 0 ID = 33888258x
   0.422213 1  2051841x        Rx   d 8 00 00 00 00 19 3D 06 00  Length = 0 BitCount = 0 ID = 33888321x
   0.422948 1  2051807x        Rx   d 8 00 00 00 00 00 00 16 00  Length = 0 BitCount = 0 ID = 33888263x
   0.423475 1  2051842x        Rx   d 8 00 00 00 00 18 21 06 00  Length = 0 BitCount = 0 ID = 33888322x
   0.423922 1  2050081x        Rx   d 8 00 00 00 00 00 00 00 00  Length = 0 BitCount = 0 ID = 33882241x
   0.424197 1  2050082x        Rx   d 8 00 00 00 00 00 00 00 00  Length = 0 BitCount = 0 ID = 33882242x
   0.424340 1  2051881x        Rx   d 8 31 0C 43 BD 00 00 00 00  Length = 0 BitCount = 0 ID = 33888385x
   0.424485 1  2050083x        Rx   d 8 00 00 00 00 00 00 00 00  Length = 0 BitCount = 0 ID = 33882243x
   0.424749 1  2050089x        Rx   d 8 00 00 00 00 00 00 00 00  Length = 0 BitCount = 0 ID = 33882249x
   0.425009 1  205008bx        Rx   d 8 00 00 00 00 00 00 00 00  Length = 0 BitCount = 0 ID = 33882251x
   0.425473 1  2051882x        Rx   d 8 31 0C C3 3D 00 00 00 00  Length = 0 BitCount = 0 ID = 33888386x
   0.428116 1  20518c9x        Rx   d 8 37 00 00 00 70 1E 5E 3E  Length = 0 BitCount = 0 ID = 33888457x
   0.429044 1  2051803x        Rx   d 8 00 00 00 00 00 00 14 00  Length = 0 BitCount = 0 ID = 33888259x
   0.429990 1  2051808x        Rx   d 8 00 00 00 00 00 00 34 00  Length = 0 BitCount = 0 ID = 33888264x
   0.434226 1  2051801x        Rx   d 8 00 00 00 00 00 00 14 00  Length = 0 BitCount = 0 ID = 33888257x
   0.434955 1  20518c7x        Rx   d 8 31 00 00 00 B6 01 45 3E  Length = 0 BitCount = 0 ID = 33888455x
   0.435969 1  2051804x        Rx   d 8 00 00 00 00 00 00 16 00  Length = 0 BitCount = 0 ID = 33888260x
   0.436125 1  2051809x        Rx   d 8 00 00 00 00 00 00 34 00  Length = 0 BitCount = 0 ID = 33888265x
   0.438652 1  2051805x        Rx   d 8 00 00 00 00 00 00 14 00  Length = 0 BitCount = 0 ID = 33888261x
   0.439082 1  205188bx        Rx   d 8 31 0C C3 3C 00 00 00 00  Length = 0 BitCount = 0 ID = 33888395x
   0.440653 1  20518c5x        Rx   d 8 30 00 00 00 DE DD 40 3E  Length = 0 BitCount = 0 ID = 33888453x
   0.440961 1  2051847x        Rx   d 8 00 00 00 80 17 2A 06 00  Length = 0 BitCount = 0 ID = 33888327x
   0.442896 1  2051806x        Rx   d 8 00 00 00 00 00 00 14 00  Length = 0 BitCount = 0 ID = 33888262x
   0.443034 1  2051887x        Rx   d 8 00 00 00 00 00 00 00 00  Length = 0 BitCount = 0 ID = 33888391x
   0.444085 1  205180bx        Rx   d 8 00 00 00 00 00 00 34 00  Length = 0 BitCount = 0 ID = 33888267x
   0.445502 1  2051802x        Rx   d 8 00 00 00 00 00 00 14 00  Length = 0 BitCount = 0 ID = 33888258x
   0.445892 1  2051846x        Rx   d 8 00 00 00 00 17 1B 06 00  Length = 0 BitCount = 0 ID = 33888326x
   0.446222 1  20518c1x        Rx   d 8 31 00 00 00 38 78 47 3E  Length = 0 BitCount = 0 ID = 33888449x
   0.447492 1  20518c2x        Rx   d 8 36 00 00 00 0C 14 58 3E  Length = 0 BitCount = 0 ID = 33888450x
   0.447906 1  2051886x        Rx   d 8 00 00 00 00 00 00 00 00  Length = 0 BitCount = 0 ID = 33888390x
   0.448047 1  2051807x        Rx   d 8 00 00 00 00 00 00 16 00  Length = 0 BitCount = 0 ID = 33888263x
   0.448191 1  20518c4x        Rx   d 8 2E 00 00 00 E0 5C 3B 3E  Length = 0 BitCount = 0 ID = 33888452x
   0.449054 1  2051883x        Rx   d 8 24 49 92 BD 00 00 00 00  Length = 0 BitCount = 0 ID = 33888387x
   0.449901 1  20518c6x        Rx   d 8 2F 00 00 00 A9 59 3F 3E  Length = 0 BitCount = 0 ID = 33888454x
   0.451050 1  20518c3x        Rx   d 8 31 00 00 00 3C 78 46 3E  Length = 0 BitCount = 0 ID = 33888451x
   0.451196 1  20518cbx        Rx   d 8 2D 00 00 00 04 30 36 3E  Length = 0 BitCount = 0 ID = 33888459x
   0.451980 1  20518c8x        Rx   d 8 34 00 00 00 72 C3 52 3E  Length = 0 BitCount = 0 ID = 33888456x
   0.454058 1  2051803x        Rx   d 8 00 00 00 00 00 00 14 00  Length = 0 BitCount = 0 ID = 33888259x
   0.454994 1  2051808x        Rx   d 8 00 00 00 00 00 00 34 00  Length = 0 BitCount = 0 ID = 33888264x
   0.457095 1  205184bx        Rx   d 8 00 00 00 00 19 32 06 00  Length = 0 BitCount = 0 ID = 33888331x
   0.459236 1  2051801x        Rx   d 8 00 00 00 00 00 00 14 00  Length = 0 BitCount = 0 ID = 33888257x
   0.460984 1  2051804x        Rx   d 8 00 00 00 00 00 00 16 00  Length = 0 BitCount = 0 ID = 33888260x
   0.461133 1  2051809x        Rx   d 8 00 00 00 00 00 00 34 00  Length = 0 BitCount = 0 ID = 33888265x
   0.463675 1  2051805x        Rx   d 8 00 00 00 00 00 00 14 00  Length = 0 BitCount = 0 ID = 33888261x
   0.464019 1  2051844x        Rx   d 8 00 00 00 80 18 22 06 00  Length = 0 BitCount = 0 ID = 33888324x
   0.464157 1  2051849x        Rx   d 8 00 00 00 00 18 09 06 00  Length = 0 BitCount = 0 ID = 33888329x
   0.465988 1  2051884x        Rx   d 8 00 00 00 00 00 00 00 00  Length = 0 BitCount = 0 ID = 33888388x
   0.466135 1  2051889x        Rx   d 8 31 0C C3 BC 00 00 00 00  Length = 0 BitCount = 0 ID = 33888393x
   0.466668 1  2051845x        Rx   d 8 00 00 00 00 19 4D 06 00  Length = 0 BitCount = 0 ID = 33888325x
   0.467062 1  2051843x        Rx   d 8 00 00 00 00 19 2E 06 00  Length = 0 BitCount = 0 ID = 33888323x
   0.467911 1  2051806x        Rx   d 8 00 00 00 00 00 00 14 00  Length = 0 BitCount = 0 ID = 33888262x
   0.468049 1  2051848x        Rx   d 8 00 00 00 00 19 1D 06 00  Length = 0 BitCount = 0 ID = 33888328x
   0.468681 1  2051885x        Rx   d 8 00 00 00 00 00 00 00 00  Length = 0 BitCount = 0 ID = 33888389x
   0.469103 1  205180bx        Rx   d 8 00 00 00 00 00 00 34 00  Length = 0 BitCount = 0 ID = 33888267x
   0.469999 1  2051888x        Rx   d 8 00 00 00 00 00 00 00 00  Length = 0 BitCount = 0 ID = 33888392x
   0.470515 1  2051802x        Rx   d 8 00 00 00 00 00 00 14 00  Length = 0 BitCount = 0 ID = 33888258x
   0.472244 1  2051841x        Rx   d 8 00 00 00 00 19 3E 06 00  Length = 0 BitCount = 0 ID = 33888321x
   0.472981 1  2051807x        Rx   d 8 00 00 00 00 00 00 16 00  Length = 0 BitCount = 0 ID = 33888263x
   0.473507 1  2051842x        Rx   d 8 00 00 00 00 18 20 06 00  Length = 0 BitCount = 0 ID = 33888322x
   0.474250 1  2051881x        Rx   d 8 31 0C 43 BD 00 00 00 00  Length = 0 BitCount = 0 ID = 33888385x
   0.475518 1  2051882x        Rx   d 8 31 0C C3 3D 00 00 00 00  Length = 0 BitCount = 0 ID = 33888386x
   0.478137 1  20518c9x        Rx   d 8 37 00 00 00 62 9E 5D 3E  Length = 0 BitCount = 0 ID = 33888457x
   0.478281 1  2050084x        Rx   d 8 00 00 00 00 00 00 00 00  Length = 0 BitCount = 0 ID = 33882244x
   0.478975 1  2050085x        Rx   d 8 00 00 00 00 00 00 00 00  Length = 0 BitCount = 0 ID = 33882245x
   0.479120 1  2051803x        Rx   d 8 00 00 00 00 00 00 14 00  Length = 0 BitCount = 0 ID = 33888259x
   0.479270 1  2050086x        Rx   d 8 00 00 00 00 00 00 00 00  Length = 0 BitCount = 0 ID = 33882246x
   0.479501 1  2050087x        Rx   d 8 00 00 00 00 00 00 00 00  Length = 0 BitCount = 0 ID = 33882247x
   0.479759 1  2050088x        Rx   d 8 00 00 00 00 00 00 00 00  Length = 0 BitCount = 0 ID = 33882248x
   0.480002 1  2052c80x        Rx   d 8 00 00 00 00 00 00 00 00  Length = 0 BitCount = 0 ID = 33893504x
   0.480147 1  2051808x        Rx   d 8 00 00 00 00 00 00 34 00  Length = 0 BitCount = 0 ID = 33888264x
   0.480296 1  2050081x        Rx   d 8 00 00 00 00 00 00 00 00  Length = 0 BitCount = 0 ID = 33882241x
   0.480563 1  2050082x        Rx   d 8 00 00 00 00 00 00 00 00  Length = 0 BitCount = 0 ID = 33882242x
   0.480786 1  2050083x        Rx   d 8 00 00 00 00 00 00 00 00  Length = 0 BitCount = 0 ID = 33882243x
   0.481004 1  2050089x        Rx   d 8 00 00 00 00 00 00 00 00  Length = 0 BitCount = 0 ID = 33882249x
   0.481245 1  205008bx        Rx   d 8 00 00 00 00 00 00 00 00  Length = 0 BitCount = 0 ID = 33882251x
   0.481487 1  2050084x        Rx   d 8 00 00 00 00 00 00 00 00  Length = 0 BitCount = 0 ID = 33882244x
   0.481741 1  2050085x        Rx   d 8 00 00 00 00 00 00 00 00  Length = 0 BitCount = 0 ID = 33882245x
   0.481985 1  2050086x        Rx   d 8 00 00 00 00 00 00 00 00  Length = 0 BitCount = 0 ID = 33882246x
   0.482253 1  2050087x        Rx   d 8 00 00 00 00 00 00 00 00  Length = 0 BitCount = 0 ID = 33882247x
   0.482482 1  2050088x        Rx   d 8 00 00 00 00 00 00 00 00  Length = 0 BitCount = 0 ID = 33882248x
   0.482697 1  2052c80x        Rx   d 8 00 00 00 00 00 00 00 00  Length = 0 BitCount = 0 ID = 33893504x
   0.482992 1  2050081x        Rx   d 8 00 00 00 00 00 00 00 00  Length = 0 BitCount = 0 ID = 33882241x
   0.483266 1  2050082x        Rx   d 8 00 00 00 00 00 00 00 00  Length = 0 BitCount = 0 ID = 33882242x
   0.483541 1  2050083x        Rx   d 8 00 00 00 00 00 00 00 00  Length = 0 BitCount = 0 ID = 33882243x
   0.483813 1  2050089x        Rx   d 8 00 00 00 00 00 00 00 00  Length = 0 BitCount = 0 ID = 33882249x
   0.484056 1  205008bx        Rx   d 8 00 00 00 00 00 00 00 00  Length = 0 BitCount = 0 ID = 33882251x
   0.484253 1  2051801x        Rx   d 8 00 00 00 00 00 00 14 00  Length = 0 BitCount = 0 ID = 33888257x
   0.484395 1  2050084x        Rx   d 8 00 00 00 00 00 00 00 00  Length = 0 BitCount = 0 ID = 33882244x
   0.484659 1  2050085x        Rx   d 8 00 00 00 00 00 00 00 00  Length = 0 BitCount = 0 ID = 33882245x
   0.484891 1  2050086x        Rx   d 8 00 00 00 00 00 00 00 00  Length = 0 BitCount = 0 ID = 33882246x
   0.485029 1  20518c7x        Rx   d 8 31 00 00 00 D4 06 45 3E  Length = 0 BitCount = 0 ID = 33888455x
   0.485181 1  2050087x        Rx   d 8 00 00 00 00 00 00 00 00  Length = 0 BitCount = 0 ID = 33882247x
   0.485445 1  2050088x        Rx   d 8 00 00 00 00 00 00 00 00  Length = 0 BitCount = 0 ID = 33882248x
   0.485997 1  2051804x        Rx   d 8 00 00 00 00 00 00 16 00  Length = 0 BitCount = 0 ID = 33888260x
   0.486153 1  2051809x        Rx   d 8 00 00 00 00 00 00 34 00  Length = 0 BitCount = 0 ID = 33888265x
   0.488689 1  2051805x        Rx   d 8 00 00 00 00 00 00 14 00  Length = 0 BitCount = 0 ID = 33888261x
   0.489111 1  205188bx        Rx   d 8 31 0C C3 3C 00 00 00 00  Length = 0 BitCount = 0 ID = 33888395x
   0.490691 1  20518c5x        Rx   d 8 30 00 00 00 E8 1C 41 3E  Length = 0 BitCount = 0 ID = 33888453x
   0.490992 1  2051847x        Rx   d 8 00 00 00 80 17 2A 06 00  Length = 0 BitCount = 0 ID = 33888327x
   0.491136 1  2050081x        Rx   d 8 00 00 00 00 00 00 00 00  Length = 0 BitCount = 0 ID = 33882241x
   0.492926 1  2051806x        Rx   d 8 00 00 00 00 00 00 14 00  Length = 0 BitCount = 0 ID = 33888262x
   0.493073 1  2051887x        Rx   d 8 00 00 00 00 00 00 00 00  Length = 0 BitCount = 0 ID = 33888391x
   0.494124 1  205180bx        Rx   d 8 00 00 00 00 00 00 34 00  Length = 0 BitCount = 0 ID = 33888267x
   0.494270 1  2050082x        Rx   d 8 00 00 00 00 00 00 00 00  Length = 0 BitCount = 0 ID = 33882242x
   0.495531 1  2051802x        Rx   d 8 00 00 00 00 00 00 14 00  Length = 0 BitCount = 0 ID = 33888258x
   0.495931 1  2051846x        Rx   d 8 00 00 00 00 17 1B 06 00  Length = 0 BitCount = 0 ID = 33888326x
   0.496249 1  20518c1x        Rx   d 8 31 00 00 00 8E 83 47 3E  Length = 0 BitCount = 0 ID = 33888449x
   0.497234 1  2050083x        Rx   d 8 00 00 00 00 00 00 00 00  Length = 0 BitCount = 0 ID = 33882243x
   0.497523 1  20518c2x        Rx   d 8 36 00 00 00 76 42 58 3E  Length = 0 BitCount = 0 ID = 33888450x
   0.497917 1  2051886x        Rx   d 8 00 00 00 00 00 00 00 00  Length = 0 BitCount = 0 ID = 33888390x
   0.498063 1  2051807x        Rx   d 8 00 00 00 00 00 00 16 00  Length = 0 BitCount = 0 ID = 33888263x
   0.498210 1  20518c4x        Rx   d 8 2E 00 00 00 5F 1A 3B 3E  Length = 0 BitCount = 0 ID = 33888452x
   0.499080 1  2051883x        Rx   d 8 24 49 92 BD 00 00 00 00  Length = 0 BitCount = 0 ID = 33888387x
   0.499927 1  20518c6x        Rx   d 8 2F 00 00 00 F6 5E 3F 3E  Length = 0 BitCount = 0 ID = 33888454x
   0.500305 1  2050089x        Rx   d 8 00 00 00 00 00 00 00 00  Length = 0 BitCount = 0 ID = 33882249x
   0.500990 1  205008bx        Rx   d 8 00 00 00 00 00 00 00 00  Length = 0 BitCount = 0 ID = 33882251x
   0.501136 1  20518c3x        Rx   d 8 31 00 00 00 51 8B 45 3E  Length = 0 BitCount = 0 ID = 33888451x
   0.501272 1  20518cbx        Rx   d 8 2D 00 00 00 DE B5 35 3E  Length = 0 BitCount = 0 ID = 33888459x
   0.501419 1  2052c80x        Rx   d 8 00 00 00 00 00 00 00 00  Length = 0 BitCount = 0 ID = 33893504x
   0.501687 1  2050084x        Rx   d 8 00 00 00 00 00 00 00 00  Length = 0 BitCount = 0 ID = 33882244x
   0.501902 1  2050085x        Rx   d 8 00 00 00 00 00 00 00 00  Length = 0 BitCount = 0 ID = 33882245x
   0.502040 1  20518c8x        Rx   d 8 34 00 00 00 06 E9 52 3E  Length = 0 BitCount = 0 ID = 33888456x
   0.502187 1  2050086x        Rx   d 8 00 00 00 00 00 00 00 00  Length = 0 BitCount = 0 ID = 33882246x
   0.502412 1  2050087x        Rx   d 8 00 00 00 00 00 00 00 00  Length = 0 BitCount = 0 ID = 33882247x
   0.502667 1  2050088x        Rx   d 8 00 00 00 00 00 00 00 00  Length = 0 BitCount = 0 ID = 33882248x
   0.504098 1  2051803x        Rx   d 8 00 00 00 00 00 00 14 00  Length = 0 BitCount = 0 ID = 33888259x
   0.505023 1  2051808x        Rx   d 8 00 00 00 00 00 00 34 00  Length = 0 BitCount = 0 ID = 33888264x
   0.507117 1  205184bx        Rx   d 8 00 00 00 00 19 32 06 00  Length = 0 BitCount = 0 ID = 33888331x
   0.509263 1  2051801x        Rx   d 8 00 00 00 00 00 00 14 00  Length = 0 BitCount = 0 ID = 33888257x
   0.510477 1  2050081x        Rx   d 8 00 00 00 00 00 00 00 00  Length = 0 BitCount = 0 ID = 33882241x
   0.510717 1  2050082x        Rx   d 8 00 00 00 00 00 00 00 00  Length = 0 BitCount = 0 ID = 33882242x
   0.510927 1  2050083x        Rx   d 8 00 00 00 00 00 00 00 00  Length = 0 BitCount = 0 ID = 33882243x
   0.511070 1  2051804x        Rx   d 8 00 00 00 00 00 00 16 00  Length = 0 BitCount = 0 ID = 33888260x
   0.511215 1  2051809x        Rx   d 8 00 00 00 00 00 00 34 00  Length = 0 BitCount = 0 ID = 33888265x
   0.511844 1  2050089x        Rx   d 8 00 00 00 00 00 00 00 00  Length = 0 BitCount = 0 ID = 33882249x
   0.512059 1  205008bx        Rx   d 8 00 00 00 00 00 00 00 00  Length = 0 BitCount = 0 ID = 33882251x
   0.513697 1  2051805x        Rx   d 8 00 00 00 00 00 00 14 00  Length = 0 BitCount = 0 ID = 33888261x
   0.514013 1  2051844x        Rx   d 8 00 00 00 80 18 21 06 00  Length = 0 BitCount = 0 ID = 33888324x
   0.514167 1  2051849x        Rx   d 8 00 00 00 00 18 09 06 00  Length = 0 BitCount = 0 ID = 33888329x
   0.514884 1  2052c80x        Rx   d 8 00 00 00 00 00 00 00 00  Length = 0 BitCount = 0 ID = 33893504x
   0.515128 1  2052c40x        Rx   d 8 02 00 05 01 00 00 00 00  Length = 0 BitCount = 0 ID = 33893440x
   0.516014 1  2051884x        Rx   d 8 00 00 00 00 00 00 00 00  Length = 0 BitCount = 0 ID = 33888388x
   0.516152 1  2051889x        Rx   d 8 31 0C C3 BC 00 00 00 00  Length = 0 BitCount = 0 ID = 33888393x
   0.516731 1  2051845x        Rx   d 8 00 00 00 00 19 4D 06 00  Length = 0 BitCount = 0 ID = 33888325x
   0.517091 1  2051843x        Rx   d 8 00 00 00 00 19 2D 06 00  Length = 0 BitCount = 0 ID = 33888323x
   0.517940 1  2051806x        Rx   d 8 00 00 00 00 00 00 14 00  Length = 0 BitCount = 0 ID = 33888262x
   0.518079 1  2051848x        Rx   d 8 00 00 00 00 19 1D 06 00  Length = 0 BitCount = 0 ID = 33888328x
   0.518703 1  2051885x        Rx   d 8 00 00 00 00 00 00 00 00  Length = 0 BitCount = 0 ID = 33888389x
   0.519134 1  205180bx        Rx   d 8 00 00 00 00 00 00 34 00  Length = 0 BitCount = 0 ID = 33888267x
   0.520033 1  2051888x        Rx   d 8 00 00 00 00 00 00 00 00  Length = 0 BitCount = 0 ID = 33888392x
   0.520535 1  2051802x        Rx   d 8 00 00 00 00 00 00 14 00  Length = 0 BitCount = 0 ID = 33888258x
   0.520861 1  2050084x        Rx   d 8 00 00 00 00 00 00 00 00  Length = 0 BitCount = 0 ID = 33882244x
   0.521114 1  2050085x        Rx   d 8 00 00 00 00 00 00 00 00  Length = 0 BitCount = 0 ID = 33882245x
   0.521362 1  2050086x        Rx   d 8 00 00 00 00 00 00 00 00  Length = 0 BitCount = 0 ID = 33882246x
   0.521585 1  2050087x        Rx   d 8 00 00 00 00 00 00 00 00  Length = 0 BitCount = 0 ID = 33882247x
   0.521840 1  2050088x        Rx   d 8 00 00 00 00 00 00 00 00  Length = 0 BitCount = 0 ID = 33882248x
   0.522260 1  2051841x        Rx   d 8 00 00 00 00 19 3E 06 00  Length = 0 BitCount = 0 ID = 33888321x
   0.523032 1  2051807x        Rx   d 8 00 00 00 00 00 00 16 00  Length = 0 BitCount = 0 ID = 33888263x
   0.523542 1  2051842x        Rx   d 8 00 00 00 00 18 21 06 00  Length = 0 BitCount = 0 ID = 33888322x
   0.524262 1  2051881x        Rx   d 8 31 0C 43 BD 00 00 00 00  Length = 0 BitCount = 0 ID = 33888385x
   0.525538 1  2051882x        Rx   d 8 31 0C C3 3D 00 00 00 00  Length = 0 BitCount = 0 ID = 33888386x
   0.528166 1  20518c9x        Rx   d 8 37 00 00 00 82 3D 5E 3E  Length = 0 BitCount = 0 ID = 33888457x
   0.529103 1  2051803x        Rx   d 8 00 00 00 00 00 00 14 00  Length = 0 BitCount = 0 ID = 33888259x
   0.530021 1  2051808x        Rx   d 8 00 00 00 00 00 00 34 00  Length = 0 BitCount = 0 ID = 33888264x
   0.531587 1  2050081x        Rx   d 8 00 00 00 00 00 00 00 00  Length = 0 BitCount = 0 ID = 33882241x
   0.531838 1  2050082x        Rx   d 8 00 00 00 00 00 00 00 00  Length = 0 BitCount = 0 ID = 33882242x
   0.532093 1  2050083x        Rx   d 8 00 00 00 00 00 00 00 00  Length = 0 BitCount = 0 ID = 33882243x
   0.532323 1  2050089x        Rx   d 8 00 00 00 00 00 00 00 00  Length = 0 BitCount = 0 ID = 33882249x
   0.532570 1  205008bx        Rx   d 8 00 00 00 00 00 00 00 00  Length = 0 BitCount = 0 ID = 33882251x
   0.534272 1  2051801x        Rx   d 8 00 00 00 00 00 00 14 00  Length = 0 BitCount = 0 ID = 33888257x
   0.535028 1  20518c7x        Rx   d 8 31 00 00 00 24 40 45 3E  Length = 0 BitCount = 0 ID = 33888455x
   0.536044 1  2051804x        Rx   d 8 00 00 00 00 00 00 16 00  Length = 0 BitCount = 0 ID = 33888260x
   0.536193 1  2051809x        Rx   d 8 00 00 00 00 00 00 34 00  Length = 0 BitCount = 0 ID = 33888265x
   0.538694 1  2051805x        Rx   d 8 00 00 00 00 00 00 14 00  Length = 0 BitCount = 0 ID = 33888261x
   0.539125 1  205188bx        Rx   d 8 31 0C C3 3C 00 00 00 00  Length = 0 BitCount = 0 ID = 33888395x
   0.540115 1  2052c80x        Rx   d 8 00 00 00 00 00 00 00 00  Length = 0 BitCount = 0 ID = 33893504x
   0.540705 1  20518c5x        Rx   d 8 30 00 00 00 70 DF 40 3E  Length = 0 BitCount = 0 ID = 33888453x
   0.541021 1  2051847x        Rx   d 8 00 00 00 80 17 2A 06 00  Length = 0 BitCount = 0 ID = 33888327x
   0.542280 1  2050084x        Rx   d 8 00 00 00 00 00 00 00 00  Length = 0 BitCount = 0 ID = 33882244x
   0.542531 1  2050085x        Rx   d 8 00 00 00 00 00 00 00 00  Length = 0 BitCount = 0 ID = 33882245x
   0.542783 1  2050086x        Rx   d 8 00 00 00 00 00 00 00 00  Length = 0 BitCount = 0 ID = 33882246x
   0.542931 1  2051806x        Rx   d 8 00 00 00 00 00 00 14 00  Length = 0 BitCount = 0 ID = 33888262x
   0.543076 1  2050087x        Rx   d 8 00 00 00 00 00 00 00 00  Length = 0 BitCount = 0 ID = 33882247x
   0.543223 1  2051887x        Rx   d 8 00 00 00 00 00 00 00 00  Length = 0 BitCount = 0 ID = 33888391x
   0.543367 1  2050088x        Rx   d 8 00 00 00 00 00 00 00 00  Length = 0 BitCount = 0 ID = 33882248x
   0.544125 1  205180bx        Rx   d 8 00 00 00 00 00 00 34 00  Length = 0 BitCount = 0 ID = 33888267x
   0.545527 1  2051802x        Rx   d 8 00 00 00 00 00 00 14 00  Length = 0 BitCount = 0 ID = 33888258x
   0.545925 1  2051846x        Rx   d 8 00 00 00 00 17 1B 06 00  Length = 0 BitCount = 0 ID = 33888326x
   0.546284 1  20518c1x        Rx   d 8 31 00 00 00 C6 67 47 3E  Length = 0 BitCount = 0 ID = 33888449x
   0.547516 1  20518c2x        Rx   d 8 36 00 00 00 4C 4B 58 3E  Length = 0 BitCount = 0 ID = 33888450x
   0.547929 1  2051886x        Rx   d 8 00 00 00 00 00 00 00 00  Length = 0 BitCount = 0 ID = 33888390x
   0.548079 1  2051807x        Rx   d 8 00 00 00 00 00 00 16 00  Length = 0 BitCount = 0 ID = 33888263x
   0.548221 1  20518c4x        Rx   d 8 2E 00 00 00 AE 6D 3B 3E  Length = 0 BitCount = 0 ID = 33888452x
   0.549083 1  2051883x        Rx   d 8 24 49 92 BD 00 00 00 00  Length = 0 BitCount = 0 ID = 33888387x
   0.549929 1  20518c6x        Rx   d 8 2F 00 00 00 AC 65 3F 3E  Length = 0 BitCount = 0 ID = 33888454x
   0.551078 1  20518c3x        Rx   d 8 31 00 00 00 0A CE 45 3E  Length = 0 BitCount = 0 ID = 33888451x
   0.551216 1  20518cbx        Rx   d 8 2D 00 00 00 65 D4 35 3E  Length = 0 BitCount = 0 ID = 33888459x
   0.552009 1  20518c8x        Rx   d 8 34 00 00 00 92 36 53 3E  Length = 0 BitCount = 0 ID = 33888456x
   0.553035 1  2050081x        Rx   d 8 00 00 00 00 00 00 00 00  Length = 0 BitCount = 0 ID = 33882241x
   0.553254 1  2050082x        Rx   d 8 00 00 00 00 00 00 00 00  Length = 0 BitCount = 0 ID = 33882242x
   0.553504 1  2050083x        Rx   d 8 00 00 00 00 00 00 00 00  Length = 0 BitCount = 0 ID = 33882243x
   0.553756 1  2050089x        Rx   d 8 00 00 00 00 00 00 00 00  Length = 0 BitCount = 0 ID = 33882249x
   0.554000 1  205008bx        Rx   d 8 00 00 00 00 00 00 00 00  Length = 0 BitCount = 0 ID = 33882251x
   0.554144 1  2051803x        Rx   d 8 00 00 00 00 00 00 14 00  Length = 0 BitCount = 0 ID = 33888259x
   0.555026 1  2051808x        Rx   d 8 00 00 00 00 00 00 34 00  Length = 0 BitCount = 0 ID = 33888264x
   0.557130 1  205184bx        Rx   d 8 00 00 00 00 19 32 06 00  Length = 0 BitCount = 0 ID = 33888331x
   0.559267 1  2051801x        Rx   d 8 00 00 00 00 00 00 14 00  Length = 0 BitCount = 0 ID = 33888257x
   0.561006 1  2051804x        Rx   d 8 00 00 00 00 00 00 16 00  Length = 0 BitCount = 0 ID = 33888260x
   0.561160 1  2051809x        Rx   d 8 00 00 00 00 00 00 34 00  Length = 0 BitCount = 0 ID = 33888265x
   0.563703 1  2051805x        Rx   d 8 00 00 00 00 00 00 14 00  Length = 0 BitCount = 0 ID = 33888261x
   0.564014 1  2051844x        Rx   d 8 00 00 00 80 18 21 06 00  Length = 0 BitCount = 0 ID = 33888324x
   0.564202 1  2051849x        Rx   d 8 00 00 00 00 18 09 06 00  Length = 0 BitCount = 0 ID = 33888329x
   0.564349 1  2050084x        Rx   d 8 00 00 00 00 00 00 00 00  Length = 0 BitCount = 0 ID = 33882244x
   0.564588 1  2050085x        Rx   d 8 00 00 00 00 00 00 00 00  Length = 0 BitCount = 0 ID = 33882245x
   0.564862 1  2050086x        Rx   d 8 00 00 00 00 00 00 00 00  Length = 0 BitCount = 0 ID = 33882246x
   0.565125 1  2050087x        Rx   d 8 00 00 00 00 00 00 00 00  Length = 0 BitCount = 0 ID = 33882247x
   0.565357 1  2050088x        Rx   d 8 00 00 00 00 00 00 00 00  Length = 0 BitCount = 0 ID = 33882248x
   0.565622 1  2052c80x        Rx   d 8 00 00 00 00 00 00 00 00  Length = 0 BitCount = 0 ID = 33893504x
   0.566046 1  2051884x        Rx   d 8 00 00 00 00 00 00 00 00  Length = 0 BitCount = 0 ID = 33888388x
   0.566185 1  2051889x        Rx   d 8 31 0C C3 BC 00 00 00 00  Length = 0 BitCount = 0 ID = 33888393x
   0.566701 1  2051845x        Rx   d 8 00 00 00 00 19 4D 06 00  Length = 0 BitCount = 0 ID = 33888325x
   0.567088 1  2051843x        Rx   d 8 00 00 00 00 19 2F 06 00  Length = 0 BitCount = 0 ID = 33888323x
   0.567945 1  2051806x        Rx   d 8 00 00 00 00 00 00 14 00  Length = 0 BitCount = 0 ID = 33888262x
   0.568087 1  2051848x        Rx   d 8 00 00 00 00 19 1D 06 00  Length = 0 BitCount = 0 ID = 33888328x
   0.568700 1  2051885x        Rx   d 8 00 00 00 00 00 00 00 00  Length = 0 BitCount = 0 ID = 33888389x
   0.569139 1  205180bx        Rx   d 8 00 00 00 00 00 00 34 00  Length = 0 BitCount = 0 ID = 33888267x
   0.570023 1  2051888x        Rx   d 8 00 00 00 00 00 00 00 00  Length = 0 BitCount = 0 ID = 33888392x
   0.570541 1  2051802x        Rx   d 8 00 00 00 00 00 00 14 00  Length = 0 BitCount = 0 ID = 33888258x
   0.572261 1  2051841x        Rx   d 8 00 00 00 00 19 3D 06 00  Length = 0 BitCount = 0 ID = 33888321x
   0.573007 1  2051807x        Rx   d 8 00 00 00 00 00 00 16 00  Length = 0 BitCount = 0 ID = 33888263x
   0.573542 1  2051842x        Rx   d 8 00 00 00 00 18 21 06 00  Length = 0 BitCount = 0 ID = 33888322x
   0.574262 1  2051881x        Rx   d 8 31 0C 43 BD 00 00 00 00  Length = 0 BitCount = 0 ID = 33888385x
   0.575014 1  2050081x        Rx   d 8 00 00 00 00 00 00 00 00  Length = 0 BitCount = 0 ID = 33882241x
   0.575255 1  2050082x        Rx   d 8 00 00 00 00 00 00 00 00  Length = 0 BitCount = 0 ID = 33882242x
   0.575504 1  2050083x        Rx   d 8 00 00 00 00 00 00 00 00  Length = 0 BitCount = 0 ID = 33882243x
   0.575647 1  2051882x        Rx   d 8 31 0C C3 3D 00 00 00 00  Length = 0 BitCount = 0 ID = 33888386x
   0.575799 1  2050089x        Rx   d 8 00 00 00 00 00 00 00 00  Length = 0 BitCount = 0 ID = 33882249x
   0.576049 1  205008bx        Rx   d 8 00 00 00 00 00 00 00 00  Length = 0 BitCount = 0 ID = 33882251x
   0.578169 1  20518c9x        Rx   d 8 37 00 00 00 08 0B 5E 3E  Length = 0 BitCount = 0 ID = 33888457x
   0.579107 1  2051803x        Rx   d 8 00 00 00 00 00 00 14 00  Length = 0 BitCount = 0 ID = 33888259x
   0.580030 1  2051808x        Rx   d 8 00 00 00 00 00 00 34 00  Length = 0 BitCount = 0 ID = 33888264x
   0.584273 1  2051801x        Rx   d 8 00 00 00 00 00 00 14 00  Length = 0 BitCount = 0 ID = 33888257x
   0.585002 1  20518c7x        Rx   d 8 31 00 00 00 34 C3 44 3E  Length = 0 BitCount = 0 ID = 33888455x
   0.585763 1  2050084x        Rx   d 8 00 00 00 00 00 00 00 00  Length = 0 BitCount = 0 ID = 33882244x
   0.586002 1  2050085x        Rx   d 8 00 00 00 00 00 00 00 00  Length = 0 BitCount = 0 ID = 33882245x
   0.586149 1  2051804x        Rx   d 8 00 00 00 00 00 00 16 00  Length = 0 BitCount = 0 ID = 33888260x
   0.586294 1  2050086x        Rx   d 8 00 00 00 00 00 00 00 00  Length = 0 BitCount = 0 ID = 33882246x
   0.586441 1  2051809x        Rx   d 8 00 00 00 00 00 00 34 00  Length = 0 BitCount = 0 ID = 33888265x
   0.586585 1  2050087x        Rx   d 8 00 00 00 00 00 00 00 00  Length = 0 BitCount = 0 ID = 33882247x
   0.586837 1  2050088x        Rx   d 8 00 00 00 00 00 00 00 00  Length = 0 BitCount = 0 ID = 33882248x
   0.588738 1  2051805x        Rx   d 8 00 00 00 00 00 00 14 00  Length = 0 BitCount = 0 ID = 33888261x
   0.589131 1  205188bx        Rx   d 8 31 0C C3 3C 00 00 00 00  Length = 0 BitCount = 0 ID = 33888395x
   0.590704 1  20518c5x        Rx   d 8 30 00 00 00 D0 28 41 3E  Length = 0 BitCount = 0 ID = 33888453x
   0.591009 1  2051847x        Rx   d 8 00 00 00 80 17 2A 06 00  Length = 0 BitCount = 0 ID = 33888327x
   0.591303 1  2052c80x        Rx   d 8 00 00 00 00 00 00 00 00  Length = 0 BitCount = 0 ID = 33893504x
   0.592936 1  2051806x        Rx   d 8 00 00 00 00 00 00 14 00  Length = 0 BitCount = 0 ID = 33888262x
   0.593082 1  2051887x        Rx   d 8 00 00 00 00 00 00 00 00  Length = 0 BitCount = 0 ID = 33888391x
   0.594141 1  205180bx        Rx   d 8 00 00 00 00 00 00 34 00  Length = 0 BitCount = 0 ID = 33888267x
   0.595560 1  2051802x        Rx   d 8 00 00 00 00 00 00 14 00  Length = 0 BitCount = 0 ID = 33888258x
   0.595938 1  2051846x        Rx   d 8 00 00 00 00 17 1B 06 00  Length = 0 BitCount = 0 ID = 33888326x
   0.596271 1  20518c1x        Rx   d 8 31 00 00 00 C8 AD 47 3E  Length = 0 BitCount = 0 ID = 33888449x
   0.596760 1  2050081x        Rx   d 8 00 00 00 00 00 00 00 00  Length = 0 BitCount = 0 ID = 33882241x
   0.596999 1  2050082x        Rx   d 8 00 00 00 00 00 00 00 00  Length = 0 BitCount = 0 ID = 33882242x
   0.597241 1  2050083x        Rx   d 8 00 00 00 00 00 00 00 00  Length = 0 BitCount = 0 ID = 33882243x
   0.597459 1  2050089x        Rx   d 8 00 00 00 00 00 00 00 00  Length = 0 BitCount = 0 ID = 33882249x
   0.597599 1  20518c2x        Rx   d 8 36 00 00 00 72 37 58 3E  Length = 0 BitCount = 0 ID = 33888450x
   0.597743 1  205008bx        Rx   d 8 00 00 00 00 00 00 00 00  Length = 0 BitCount = 0 ID = 33882251x
   0.597952 1  2051886x        Rx   d 8 00 00 00 00 00 00 00 00  Length = 0 BitCount = 0 ID = 33888390x
   0.598100 1  2051807x        Rx   d 8 00 00 00 00 00 00 16 00  Length = 0 BitCount = 0 ID = 33888263x
   0.598237 1  20518c4x        Rx   d 8 2E 00 00 00 34 68 3B 3E  Length = 0 BitCount = 0 ID = 33888452x
   0.599100 1  2051883x        Rx   d 8 24 49 92 BD 00 00 00 00  Length = 0 BitCount = 0 ID = 33888387x
   0.599931 1  20518c6x        Rx   d 8 2F 00 00 00 B8 94 3F 3E  Length = 0 BitCount = 0 ID = 33888454x
   0.601096 1  20518c3x        Rx   d 8 31 00 00 00 C4 91 46 3E  Length = 0 BitCount = 0 ID = 33888451x
   0.601232 1  20518cbx        Rx   d 8 2D 00 00 00 FA 59 36 3E  Length = 0 BitCount = 0 ID = 33888459x
   0.602031 1  20518c8x        Rx   d 8 34 00 00 00 82 69 53 3E  Length = 0 BitCount = 0 ID = 33888456x
   0.604098 1  2051803x        Rx   d 8 00 00 00 00 00 00 14 00  Length = 0 BitCount = 0 ID = 33888259x
   0.605037 1  2051808x        Rx   d 8 00 00 00 00 00 00 34 00  Length = 0 BitCount = 0 ID = 33888264x
   0.607134 1  205184bx        Rx   d 8 00 00 00 00 19 32 06 00  Length = 0 BitCount = 0 ID = 33888331x
   0.607426 1  2050084x        Rx   d 8 00 00 00 00 00 00 00 00  Length = 0 BitCount = 0 ID = 33882244x
   0.607646 1  2050085x        Rx   d 8 00 00 00 00 00 00 00 00  Length = 0 BitCount = 0 ID = 33882245x
   0.609270 1  2051801x        Rx   d 8 00 00 00 00 00 00 14 00  Length = 0 BitCount = 0 ID = 33888257x
   0.610590 1  2050086x        Rx   d 8 00 00 00 00 00 00 00 00  Length = 0 BitCount = 0 ID = 33882246x
   0.610824 1  2050087x        Rx   d 8 00 00 00 00 00 00 00 00  Length = 0 BitCount = 0 ID = 33882247x
   0.611014 1  2051804x        Rx   d 8 00 00 00 00 00 00 16 00  Length = 0 BitCount = 0 ID = 33888260x
   0.611166 1  2050088x        Rx   d 8 00 00 00 00 00 00 00 00  Length = 0 BitCount = 0 ID = 33882248x
   0.611308 1  2051809x        Rx   d 8 00 00 00 00 00 00 34 00  Length = 0 BitCount = 0 ID = 33888265x
   0.613705 1  2051805x        Rx   d 8 00 00 00 00 00 00 14 00  Length = 0 BitCount = 0 ID = 33888261x
   0.614023 1  2051844x        Rx   d 8 00 00 00 80 18 21 06 00  Length = 0 BitCount = 0 ID = 33888324x
   0.614173 1  2051849x        Rx   d 8 00 00 00 00 18 08 06 00  Length = 0 BitCount = 0 ID = 33888329x
   0.615161 1  2052c80x        Rx   d 8 00 00 00 00 00 00 00 00  Length = 0 BitCount = 0 ID = 33893504x
   0.615504 1  2052c40x        Rx   d 8 02 00 05 01 00 00 00 00  Length = 0 BitCount = 0 ID = 33893440x
   0.616022 1  2051884x        Rx   d 8 00 00 00 00 00 00 00 00  Length = 0 BitCount = 0 ID = 33888388x
   0.616160 1  2051889x        Rx   d 8 31 0C C3 BC 00 00 00 00  Length = 0 BitCount = 0 ID = 33888393x
   0.616698 1  2051845x        Rx   d 8 00 00 00 00 19 4F 06 00  Length = 0 BitCount = 0 ID = 33888325x
   0.617101 1  2051843x        Rx   d 8 00 00 00 00 19 2F 06 00  Length = 0 BitCount = 0 ID = 33888323x
   0.617943 1  2051806x        Rx   d 8 00 00 00 00 00 00 14 00  Length = 0 BitCount = 0 ID = 33888262x
   0.618090 1  2051848x        Rx   d 8 00 00 00 00 19 1D 06 00  Length = 0 BitCount = 0 ID = 33888328x
   0.618232 1  2050081x        Rx   d 8 00 00 00 00 00 00 00 00  Length = 0 BitCount = 0 ID = 33882241x
   0.618480 1  2050082x        Rx   d 8 00 00 00 00 00 00 00 00  Length = 0 BitCount = 0 ID = 33882242x
   0.618694 1  2050083x        Rx   d 8 00 00 00 00 00 00 00 00  Length = 0 BitCount = 0 ID = 33882243x
   0.618842 1  2051885x        Rx   d 8 00 00 00 00 00 00 00 00  Length = 0 BitCount = 0 ID = 33888389x
   0.618990 1  2050089x        Rx   d 8 00 00 00 00 00 00 00 00  Length = 0 BitCount = 0 ID = 33882249x
   0.619142 1  205180bx        Rx   d 8 00 00 00 00 00 00 34 00  Length = 0 BitCount = 0 ID = 33888267x
   0.619293 1  205008bx        Rx   d 8 00 00 00 00 00 00 00 00  Length = 0 BitCount = 0 ID = 33882251x
   0.620031 1  2051888x        Rx   d 8 00 00 00 00 00 00 00 00  Length = 0 BitCount = 0 ID = 33888392x
   0.620540 1  2051802x        Rx   d 8 00 00 00 00 00 00 14 00  Length = 0 BitCount = 0 ID = 33888258x
   0.622268 1  2051841x        Rx   d 8 00 00 00 00 19 3D 06 00  Length = 0 BitCount = 0 ID = 33888321x
   0.623004 1  2051807x        Rx   d 8 00 00 00 00 00 00 16 00  Length = 0 BitCount = 0 ID = 33888263x
   0.623539 1  2051842x        Rx   d 8 00 00 00 00 18 20 06 00  Length = 0 BitCount = 0 ID = 33888322x
   0.624275 1  2051881x        Rx   d 8 31 0C 43 BD 00 00 00 00  Length = 0 BitCount = 0 ID = 33888385x
   0.625552 1  2051882x        Rx   d 8 31 0C C3 3D 00 00 00 00  Length = 0 BitCount = 0 ID = 33888386x
   0.628158 1  20518c9x        Rx   d 8 37 00 00 00 E2 EF 5D 3E  Length = 0 BitCount = 0 ID = 33888457x
   0.629106 1  2051803x        Rx   d 8 00 00 00 00 00 00 14 00  Length = 0 BitCount = 0 ID = 33888259x
   0.630036 1  2051808x        Rx   d 8 00 00 00 00 00 00 34 00  Length = 0 BitCount = 0 ID = 33888264x
   0.630719 1  2050084x        Rx   d 8 00 00 00 00 00 00 00 00  Length = 0 BitCount = 0 ID = 33882244x
   0.630943 1  2050085x        Rx   d 8 00 00 00 00 00 00 00 00  Length = 0 BitCount = 0 ID = 33882245x
   0.631182 1  2050086x        Rx   d 8 00 00 00 00 00 00 00 00  Length = 0 BitCount = 0 ID = 33882246x
   0.631396 1  2050087x        Rx   d 8 00 00 00 00 00 00 00 00  Length = 0 BitCount = 0 ID = 33882247x
   0.631637 1  2050088x        Rx   d 8 00 00 00 00 00 00 00 00  Length = 0 BitCount = 0 ID = 33882248x
   0.634277 1  2051801x        Rx   d 8 00 00 00 00 00 00 14 00  Length = 0 BitCount = 0 ID = 33888257x
   0.635006 1  20518c7x        Rx   d 8 31 00 00 00 E8 09 45 3E  Length = 0 BitCount = 0 ID = 33888455x
   0.636030 1  2051804x        Rx   d 8 00 00 00 00 00 00 16 00  Length = 0 BitCount = 0 ID = 33888260x
